time	V(9)	V(10)
0.000000000000000e+000	0.000000e+000	0.000000e+000
6.575824473698022e-005	4.215146e-007	-4.215146e-007
6.859622086722032e-005	-2.061733e-006	2.061733e-006
7.143419699746043e-005	-7.804430e-007	7.804430e-007
7.427217312770054e-005	4.265384e-006	-4.265384e-006
7.711014925794064e-005	1.307575e-005	-1.307575e-005
7.994812538818074e-005	2.565065e-005	-2.565065e-005
8.278610151842084e-005	4.199009e-005	-4.199009e-005
8.562407764866094e-005	6.209406e-005	-6.209406e-005
8.965787888949456e-005	1.145041e-004	-1.145041e-004
9.472367717962174e-005	2.162554e-004	-2.162554e-004
1.013256026371821e-004	4.209895e-004	-4.209895e-004
1.103312958781322e-004	8.534259e-004	-8.534259e-004
1.232852279610871e-004	1.827605e-003	-1.827605e-003
1.435049565790627e-004	4.278347e-003	-4.278347e-003
1.790255387438341e-004	1.159626e-002	-1.159626e-002
2.500667030733770e-004	3.766485e-002	-3.766485e-002
3.921490317324629e-004	1.232434e-001	-1.232434e-001
5.517471664650336e-004	2.687128e-001	-2.687128e-001
7.542155023748662e-004	5.266182e-001	-5.266182e-001
9.944704585765729e-004	9.245079e-001	-9.245079e-001
1.308722097071931e-003	1.568202e+000	-1.568202e+000
1.717826012170857e-003	2.554300e+000	-2.554300e+000
2.279306464934039e-003	4.049339e+000	-4.049339e+000
2.986961358177743e-003	5.980299e+000	-5.980299e+000
3.455620073217387e-003	7.207746e+000	-7.207746e+000
3.717943824328128e-003	7.834837e+000	-7.834837e+000
4.015642181462861e-003	8.464034e+000	-8.464034e+000
4.360482406002274e-003	9.083035e+000	-9.083035e+000
4.807479576704354e-003	9.729418e+000	-9.729418e+000
4.891662298964727e-003	9.821361e+000	-9.821361e+000
4.975845021225101e-003	9.894682e+000	-9.894682e+000
5.060027743485475e-003	9.949382e+000	-9.949382e+000
5.144210465745849e-003	9.985461e+000	-9.985461e+000
5.228393188006222e-003	1.000292e+001	-1.000292e+001
5.312575910266596e-003	1.000176e+001	-1.000176e+001
5.396758632526970e-003	9.981971e+000	-9.981971e+000
5.547849243205916e-003	9.982825e+000	-9.982825e+000
5.716610303751626e-003	9.982937e+000	-9.982937e+000
5.885214548538706e-003	9.982482e+000	-9.982482e+000
6.049319380456086e-003	9.981778e+000	-9.981778e+000
6.237184685196626e-003	9.980766e+000	-9.980766e+000
6.612915294677706e-003	9.976944e+000	-9.976944e+000
7.250848968361021e-003	9.959066e+000	-9.959066e+000
7.484211249604193e-003	9.939590e+000	-9.939590e+000
7.795317262814256e-003	9.898226e+000	-9.898226e+000
8.017251200106176e-003	9.867039e+000	-9.867039e+000
8.290537308406364e-003	9.828800e+000	-9.828800e+000
8.837109525006739e-003	9.752868e+000	-9.752868e+000
9.813672025006739e-003	9.634884e+000	-9.634884e+000
1.079023452500674e-002	9.551464e+000	-9.551464e+000
1.091809533686685e-002	9.580264e+000	-9.580264e+000
1.104595614872695e-002	9.619464e+000	-9.619464e+000
1.117381696058706e-002	9.669064e+000	-9.669064e+000
1.130167777244717e-002	9.729063e+000	-9.729063e+000
1.142953858430728e-002	9.799462e+000	-9.799462e+000
1.155739939616738e-002	9.880260e+000	-9.880260e+000
1.168526020802749e-002	9.971458e+000	-9.971458e+000
1.187180844486280e-002	9.978787e+000	-9.978787e+000
1.205835668169810e-002	9.984664e+000	-9.984664e+000
1.224490491853341e-002	9.989090e+000	-9.989090e+000
1.243145315536871e-002	9.992063e+000	-9.992063e+000
1.261800139220401e-002	9.993586e+000	-9.993586e+000
1.280454962903932e-002	9.993656e+000	-9.993656e+000
1.299109786587462e-002	9.992275e+000	-9.992275e+000
1.342922474741935e-002	9.993005e+000	-9.993005e+000
1.399894861357864e-002	9.992972e+000	-9.992972e+000
1.451968361216452e-002	9.992481e+000	-9.992481e+000
1.501635647377704e-002	9.991867e+000	-9.991867e+000
1.563684395321576e-002	9.991047e+000	-9.991047e+000
1.629438749312727e-002	9.990114e+000	-9.990114e+000
1.682678892920857e-002	9.989286e+000	-9.989286e+000
1.734922693433876e-002	9.988359e+000	-9.988359e+000
1.832578943433876e-002	9.986352e+000	-9.986352e+000
1.930235193433876e-002	9.984148e+000	-9.984148e+000
1.934312651116380e-002	9.984089e+000	-9.984089e+000
1.958777397211406e-002	9.984683e+000	-9.984683e+000
1.980565346495816e-002	9.985934e+000	-9.985934e+000
2.011691076214966e-002	9.988048e+000	-9.988048e+000
2.044617024096866e-002	9.990161e+000	-9.990161e+000
2.070308956089050e-002	9.991525e+000	-9.991525e+000
2.103489125832314e-002	9.992822e+000	-9.992822e+000
2.141141200455797e-002	9.993650e+000	-9.993650e+000
2.195661441738575e-002	9.993896e+000	-9.993896e+000
2.245242111968489e-002	9.993555e+000	-9.993555e+000
2.289607099837639e-002	9.993063e+000	-9.993063e+000
2.338583012610774e-002	9.992482e+000	-9.992482e+000
2.436239262610774e-002	9.991230e+000	-9.991230e+000
2.533895512610774e-002	9.989824e+000	-9.989824e+000
2.631551762610774e-002	9.988153e+000	-9.988153e+000
2.729208012610774e-002	9.986221e+000	-9.986221e+000
2.767929314930276e-002	9.985437e+000	-9.985437e+000
2.776874938315247e-002	9.985414e+000	-9.985414e+000
2.811422717990281e-002	9.986679e+000	-9.986679e+000
2.846200309852126e-002	9.988670e+000	-9.988670e+000
2.878869797646673e-002	9.990547e+000	-9.990547e+000
2.906185980018951e-002	9.991885e+000	-9.991885e+000
2.937769476382958e-002	9.993036e+000	-9.993036e+000
2.976014780617894e-002	9.993807e+000	-9.993807e+000
3.031328639172769e-002	9.993999e+000	-9.993999e+000
3.080250340497748e-002	9.993640e+000	-9.993640e+000
3.125392169143357e-002	9.993136e+000	-9.993136e+000
3.174626148613589e-002	9.992561e+000	-9.992561e+000
3.241613196218896e-002	9.991733e+000	-9.991733e+000
3.306943682775755e-002	9.990870e+000	-9.990870e+000
3.357748502090685e-002	9.990146e+000	-9.990146e+000
3.403849379156449e-002	9.989417e+000	-9.989417e+000
3.496051133287977e-002	9.987723e+000	-9.987723e+000
3.593707383287977e-002	9.986020e+000	-9.986020e+000
3.628735330328549e-002	9.986243e+000	-9.986243e+000
3.660264065452199e-002	9.987583e+000	-9.987583e+000
3.692631952895269e-002	9.989438e+000	-9.989438e+000
3.731844990351479e-002	9.991478e+000	-9.991478e+000
3.768243215473605e-002	9.992915e+000	-9.992915e+000
3.804696731561350e-002	9.993723e+000	-9.993723e+000
3.861053965573847e-002	9.993978e+000	-9.993978e+000
3.915361784802819e-002	9.993604e+000	-9.993604e+000
3.961655465363686e-002	9.993092e+000	-9.993092e+000
4.011382916771557e-002	9.992503e+000	-9.992503e+000
4.109039166771557e-002	9.991255e+000	-9.991255e+000
4.206695416771557e-002	9.989852e+000	-9.989852e+000
4.304351666771557e-002	9.988192e+000	-9.988192e+000
4.402007916771557e-002	9.986353e+000	-9.986353e+000
4.440270874105466e-002	9.985725e+000	-9.985725e+000
4.458847859045312e-002	9.986049e+000	-9.986049e+000
4.480078698976564e-002	9.986999e+000	-9.986999e+000
4.512443690266513e-002	9.988797e+000	-9.988797e+000
4.546605032120779e-002	9.990700e+000	-9.990700e+000
4.574022256276604e-002	9.992008e+000	-9.992008e+000
4.604871377198031e-002	9.993103e+000	-9.993103e+000
4.643389264220593e-002	9.993855e+000	-9.993855e+000
4.699004583191529e-002	9.994034e+000	-9.994034e+000
4.747498666949832e-002	9.993674e+000	-9.993674e+000
4.792923290508632e-002	9.993169e+000	-9.993169e+000
4.842467061712073e-002	9.992591e+000	-9.992591e+000
4.909444245235519e-002	9.991765e+000	-9.991765e+000
4.974605374140032e-002	9.990902e+000	-9.990902e+000
5.039660549143085e-002	9.989964e+000	-9.989964e+000
5.098360775205628e-002	9.989006e+000	-9.989006e+000
5.196017025205628e-002	9.987180e+000	-9.987180e+000
5.243266904814903e-002	9.986234e+000	-9.986234e+000
5.272453971362878e-002	9.985723e+000	-9.985723e+000
5.294991301304848e-002	9.986147e+000	-9.986147e+000
5.319755457366532e-002	9.987321e+000	-9.987321e+000
5.353617768744751e-002	9.989225e+000	-9.989225e+000
5.388759746658652e-002	9.991133e+000	-9.991133e+000
5.414122334298827e-002	9.992289e+000	-9.992289e+000
5.440720960960060e-002	9.993176e+000	-9.993176e+000
5.480814014097010e-002	9.993896e+000	-9.993896e+000
5.537915546344994e-002	9.994046e+000	-9.994046e+000
5.581650824801570e-002	9.993721e+000	-9.993721e+000
5.626670600230672e-002	9.993220e+000	-9.993220e+000
5.676941805707227e-002	9.992632e+000	-9.992632e+000
5.774598055707227e-002	9.991398e+000	-9.991398e+000
5.872254305707227e-002	9.990017e+000	-9.990017e+000
5.969910555707227e-002	9.988388e+000	-9.988388e+000
6.067566805707227e-002	9.986575e+000	-9.986575e+000
6.106407762553458e-002	9.985926e+000	-9.985926e+000
6.125876471245918e-002	9.986235e+000	-9.986235e+000
6.148126424037301e-002	9.987206e+000	-9.987206e+000
6.183486915847633e-002	9.989129e+000	-9.989129e+000
6.216911413376937e-002	9.990939e+000	-9.990939e+000
6.243299250692227e-002	9.992161e+000	-9.992161e+000
6.272509007890124e-002	9.993164e+000	-9.993164e+000
6.311634867714434e-002	9.993897e+000	-9.993897e+000
6.367762233287516e-002	9.994061e+000	-9.994061e+000
6.414952218675847e-002	9.993709e+000	-9.993709e+000
6.460620011603328e-002	9.993201e+000	-9.993201e+000
6.510617141740778e-002	9.992620e+000	-9.992620e+000
6.577598039208536e-002	9.991796e+000	-9.991796e+000
6.642538696921953e-002	9.990938e+000	-9.990938e+000
6.707364253632261e-002	9.990006e+000	-9.990006e+000
6.767459238299441e-002	9.989030e+000	-9.989030e+000
6.865115488299441e-002	9.987212e+000	-9.987212e+000
6.911488692113235e-002	9.986300e+000	-9.986300e+000
6.940530055776678e-002	9.985820e+000	-9.985820e+000
6.962432586130422e-002	9.986258e+000	-9.986258e+000
6.987464049391845e-002	9.987443e+000	-9.987443e+000
7.021200085040778e-002	9.989320e+000	-9.989320e+000
7.056805504419969e-002	9.991212e+000	-9.991212e+000
7.086675625715246e-002	9.992524e+000	-9.992524e+000
7.113775594386396e-002	9.993356e+000	-9.993356e+000
7.157861071114660e-002	9.994013e+000	-9.994013e+000
7.214492401421746e-002	9.994062e+000	-9.994062e+000
7.254818044364657e-002	9.993740e+000	-9.993740e+000
7.305035491362028e-002	9.993178e+000	-9.993178e+000
7.359467192222266e-002	9.992536e+000	-9.992536e+000
7.457123442222266e-002	9.991292e+000	-9.991292e+000
7.554779692222266e-002	9.989896e+000	-9.989896e+000
7.652435942222266e-002	9.988241e+000	-9.988241e+000
7.750092192222266e-002	9.986564e+000	-9.986564e+000
7.787145756545381e-002	9.986253e+000	-9.986253e+000
7.805968209590244e-002	9.986893e+000	-9.986893e+000
7.827479584498660e-002	9.987993e+000	-9.987993e+000
7.863607997816799e-002	9.989957e+000	-9.989957e+000
7.899660954970812e-002	9.991721e+000	-9.991721e+000
7.935338640864592e-002	9.993057e+000	-9.993057e+000
7.972060902046142e-002	9.993826e+000	-9.993826e+000
8.029487437737246e-002	9.994042e+000	-9.994042e+000
8.083826297617112e-002	9.993652e+000	-9.993652e+000
8.131716913025738e-002	9.993121e+000	-9.993121e+000
8.182050380237438e-002	9.992532e+000	-9.992532e+000
8.248718520587263e-002	9.991704e+000	-9.991704e+000
8.320217860609504e-002	9.990747e+000	-9.990747e+000
8.384666541445689e-002	9.989798e+000	-9.989798e+000
8.458353829704442e-002	9.988551e+000	-9.988551e+000
8.556010079704442e-002	9.986637e+000	-9.986637e+000
8.595202758167322e-002	9.985932e+000	-9.985932e+000
8.621286775832554e-002	9.986004e+000	-9.986004e+000
8.647464534823347e-002	9.986945e+000	-9.986945e+000
8.674316556871037e-002	9.988436e+000	-9.988436e+000
8.709073088521757e-002	9.990425e+000	-9.990425e+000
8.736573787752543e-002	9.991779e+000	-9.991779e+000
8.770006124102725e-002	9.993015e+000	-9.993015e+000
8.807564428642362e-002	9.993804e+000	-9.993804e+000
8.860113018978819e-002	9.994031e+000	-9.994031e+000
8.909412354210454e-002	9.993701e+000	-9.993701e+000
8.955447737037672e-002	9.993200e+000	-9.993200e+000
9.005573462716977e-002	9.992612e+000	-9.992612e+000
9.103229712716977e-002	9.991376e+000	-9.991376e+000
9.200885962716977e-002	9.989992e+000	-9.989992e+000
9.298542212716977e-002	9.988358e+000	-9.988358e+000
9.396198462716977e-002	9.986477e+000	-9.986477e+000
9.435593480420321e-002	9.985704e+000	-9.985704e+000
9.456276200720691e-002	9.985943e+000	-9.985943e+000
9.479913595349686e-002	9.986961e+000	-9.986961e+000
9.513911486390350e-002	9.988849e+000	-9.988849e+000
9.547746147870417e-002	9.990734e+000	-9.990734e+000
9.576061011530719e-002	9.992080e+000	-9.992080e+000
9.605629773688325e-002	9.993117e+000	-9.993117e+000
9.644622549444816e-002	9.993863e+000	-9.993863e+000
9.700673979402841e-002	9.994034e+000	-9.994034e+000
9.748119200152718e-002	9.993680e+000	-9.993680e+000
9.793590782894904e-002	9.993174e+000	-9.993174e+000
9.843360289196346e-002	9.992594e+000	-9.992594e+000
9.910345299600559e-002	9.991768e+000	-9.991768e+000
9.975382537132620e-002	9.990908e+000	-9.990908e+000
1.004031012194352e-001	9.989970e+000	-9.989970e+000
1.009986190272020e-001	9.988999e+000	-9.988999e+000
1.019751815272020e-001	9.987174e+000	-9.987174e+000
1.024408367625186e-001	9.986247e+000	-9.986247e+000
1.027312797325502e-001	9.985751e+000	-9.985751e+000
1.029528069031105e-001	9.986182e+000	-9.986182e+000
1.032024014797677e-001	9.987368e+000	-9.987368e+000
1.035393479514694e-001	9.989256e+000	-9.989256e+000
1.038935868816723e-001	9.991167e+000	-9.991167e+000
1.041545059665504e-001	9.992348e+000	-9.992348e+000
1.044121467330150e-001	9.993197e+000	-9.993197e+000
1.048161663413057e-001	9.993908e+000	-9.993908e+000
1.053909765336620e-001	9.994056e+000	-9.994056e+000
1.058204087819924e-001	9.993738e+000	-9.993738e+000
1.062947784457711e-001	9.993208e+000	-9.993208e+000
1.068181282586448e-001	9.992591e+000	-9.992591e+000
1.077946907586448e-001	9.991352e+000	-9.991352e+000
1.087712532586448e-001	9.989965e+000	-9.989965e+000
1.097478157586448e-001	9.988331e+000	-9.988331e+000
1.107243782586448e-001	9.986567e+000	-9.986567e+000
1.111093188268914e-001	9.986014e+000	-9.986014e+000
1.112812485923982e-001	9.986367e+000	-9.986367e+000
1.114777397529773e-001	9.987239e+000	-9.987239e+000
1.117995628828617e-001	9.988979e+000	-9.988979e+000
1.121444186438502e-001	9.990842e+000	-9.990842e+000
1.124285075638053e-001	9.992161e+000	-9.992161e+000
1.127234221480702e-001	9.993176e+000	-9.993176e+000
1.131136364974832e-001	9.993907e+000	-9.993907e+000
1.136736152857873e-001	9.994069e+000	-9.994069e+000
1.141482093830594e-001	9.993714e+000	-9.993714e+000
1.146055793098931e-001	9.993206e+000	-9.993206e+000
1.151056486280662e-001	9.992625e+000	-9.992625e+000
1.157753645736011e-001	9.991802e+000	-9.991802e+000
1.164247819123836e-001	9.990946e+000	-9.990946e+000
1.170730657520987e-001	9.990014e+000	-9.990014e+000
1.176732592255797e-001	9.989039e+000	-9.989039e+000
1.186498217255797e-001	9.987225e+000	-9.987225e+000
1.191145393436223e-001	9.986312e+000	-9.986312e+000
1.194053350954641e-001	9.985830e+000	-9.985830e+000
1.196246088007475e-001	9.986267e+000	-9.986267e+000
1.198752073210714e-001	9.987453e+000	-9.987453e+000
1.202125389717534e-001	9.989326e+000	-9.989326e+000
1.205688503374156e-001	9.991218e+000	-9.991218e+000
1.208683576910955e-001	9.992531e+000	-9.992531e+000
1.211403635046672e-001	9.993362e+000	-9.993362e+000
1.215828457806056e-001	9.994017e+000	-9.994017e+000
1.221484467731830e-001	9.994062e+000	-9.994062e+000
1.225518735997096e-001	9.993738e+000	-9.993738e+000
1.230565757676249e-001	9.993174e+000	-9.993174e+000
1.236023068607296e-001	9.992530e+000	-9.992530e+000
1.245788693607296e-001	9.991285e+000	-9.991285e+000
1.255554318607296e-001	9.989888e+000	-9.989888e+000
1.265319943607296e-001	9.988231e+000	-9.988231e+000
1.275085568607296e-001	9.986559e+000	-9.986559e+000
1.278783233185067e-001	9.986263e+000	-9.986263e+000
1.280667985824835e-001	9.986920e+000	-9.986920e+000
1.282821988841713e-001	9.988029e+000	-9.988029e+000
1.286448472606312e-001	9.990002e+000	-9.990002e+000
1.290060980705081e-001	9.991764e+000	-9.991764e+000
1.293569246931662e-001	9.993070e+000	-9.993070e+000
1.297263648641513e-001	9.993834e+000	-9.993834e+000
1.302985521780969e-001	9.994042e+000	-9.994042e+000
1.308478319360191e-001	9.993643e+000	-9.993643e+000
1.313308951649866e-001	9.993106e+000	-9.993106e+000
1.318350359757523e-001	9.992515e+000	-9.992515e+000
1.325010156758993e-001	9.991687e+000	-9.991687e+000
1.332109515630840e-001	9.990736e+000	-9.990736e+000
1.338538631704142e-001	9.989786e+000	-9.989786e+000
1.346032922512692e-001	9.988515e+000	-9.988515e+000
1.355798547512692e-001	9.986604e+000	-9.986604e+000
1.359686664381107e-001	9.985934e+000	-9.985934e+000
1.362301043421690e-001	9.986059e+000	-9.986059e+000
1.365006321977323e-001	9.987086e+000	-9.987086e+000
1.367748877457271e-001	9.988618e+000	-9.988618e+000
1.371615819011762e-001	9.990788e+000	-9.990788e+000
1.374248657435241e-001	9.992043e+000	-9.992043e+000
1.377220676768628e-001	9.993090e+000	-9.993090e+000
1.381114339856900e-001	9.993846e+000	-9.993846e+000
1.386405971492646e-001	9.994016e+000	-9.994016e+000
1.391069726308059e-001	9.993670e+000	-9.993670e+000
1.395591364861447e-001	9.993168e+000	-9.993168e+000
1.400488831584262e-001	9.992592e+000	-9.992592e+000
1.410254456584262e-001	9.991353e+000	-9.991353e+000
1.420020081584262e-001	9.989965e+000	-9.989965e+000
1.429785706584262e-001	9.988326e+000	-9.988326e+000
1.439551331584262e-001	9.986429e+000	-9.986429e+000
1.443490883067565e-001	9.985637e+000	-9.985637e+000
1.444384825782072e-001	9.985609e+000	-9.985609e+000
1.447929690269755e-001	9.986879e+000	-9.986879e+000
1.451329522440969e-001	9.988780e+000	-9.988780e+000
1.454692643379352e-001	9.990672e+000	-9.990672e+000
1.457470100928163e-001	9.992006e+000	-9.992006e+000
1.460512390113985e-001	9.993089e+000	-9.993089e+000
1.464379992474165e-001	9.993843e+000	-9.993843e+000
1.469955939023556e-001	9.994021e+000	-9.994021e+000
1.474765987932429e-001	9.993665e+000	-9.993665e+000
1.479303168487643e-001	9.993159e+000	-9.993159e+000
1.484256819802916e-001	9.992581e+000	-9.992581e+000
1.490954644011619e-001	9.991755e+000	-9.991755e+000
1.497469726204027e-001	9.990891e+000	-9.990891e+000
1.503974517668925e-001	9.989951e+000	-9.989951e+000
1.509853815988830e-001	9.988990e+000	-9.988990e+000
1.519619440988830e-001	9.987161e+000	-9.987161e+000
1.524325743987749e-001	9.986217e+000	-9.986217e+000
1.527239267122195e-001	9.985703e+000	-9.985703e+000
1.529488982944117e-001	9.986127e+000	-9.986127e+000
1.531965802382969e-001	9.987304e+000	-9.987304e+000
1.535345587143887e-001	9.989208e+000	-9.989208e+000
1.538860303546351e-001	9.991120e+000	-9.991120e+000
1.541375105827822e-001	9.992270e+000	-9.992270e+000
1.544058295216979e-001	9.993169e+000	-9.993169e+000
1.548058964607984e-001	9.993891e+000	-9.993891e+000
1.553761166444043e-001	9.994043e+000	-9.994043e+000
1.558155954601005e-001	9.993716e+000	-9.993716e+000
1.562656644442778e-001	9.993216e+000	-9.993216e+000
1.567677357327508e-001	9.992628e+000	-9.992628e+000
1.577442982327508e-001	9.991394e+000	-9.991394e+000
1.587208607327508e-001	9.990012e+000	-9.990012e+000
1.596974232327508e-001	9.988382e+000	-9.988382e+000
1.606739857327508e-001	9.986566e+000	-9.986566e+000
1.610623761175867e-001	9.985912e+000	-9.985912e+000
1.612575606726483e-001	9.986219e+000	-9.986219e+000
1.614806287355759e-001	9.987194e+000	-9.987194e+000
1.618335687020401e-001	9.989116e+000	-9.989116e+000
1.621679707859738e-001	9.990930e+000	-9.990930e+000
1.624332981715174e-001	9.992159e+000	-9.992159e+000
1.627252037497627e-001	9.993162e+000	-9.993162e+000
1.631165335123964e-001	9.993896e+000	-9.993896e+000
1.636778337297926e-001	9.994059e+000	-9.994059e+000
1.641495447635323e-001	9.993707e+000	-9.993707e+000
1.646060949495425e-001	9.993199e+000	-9.993199e+000
1.651060033853606e-001	9.992619e+000	-9.992619e+000
1.657758243626685e-001	9.991795e+000	-9.991795e+000
1.664252197132491e-001	9.990937e+000	-9.990937e+000
1.670735032523810e-001	9.990005e+000	-9.990005e+000
1.676742668957421e-001	9.989029e+000	-9.989029e+000
1.686508293957421e-001	9.987211e+000	-9.987211e+000
1.691146299749302e-001	9.986299e+000	-9.986299e+000
1.694050416198522e-001	9.985817e+000	-9.985817e+000
1.696241607976776e-001	9.986256e+000	-9.986256e+000
1.698745827151925e-001	9.987441e+000	-9.987441e+000
1.702118452081148e-001	9.989317e+000	-9.989317e+000
1.705679314770047e-001	9.991210e+000	-9.991210e+000
1.708664674655511e-001	9.992522e+000	-9.992522e+000
1.711372857134277e-001	9.993354e+000	-9.993354e+000
1.715778469667851e-001	9.994012e+000	-9.994012e+000
1.721443021989829e-001	9.994062e+000	-9.994062e+000
