time	V(7)	V(8)
0.000000000000000e+000	0.000000e+000	0.000000e+000
1.797695920112127e-006	-2.453486e-014	2.453486e-014
3.595391840224255e-006	-2.086019e-014	2.086019e-014
5.393087760336383e-006	1.102400e-014	-1.102400e-014
7.190783680448510e-006	7.111772e-014	-7.111772e-014
8.988479600560637e-006	1.594210e-013	-1.594210e-013
1.078617552067277e-005	2.759337e-013	-2.759337e-013
1.258387144078489e-005	4.206560e-013	-4.206560e-013
2.516675488157082e-005	4.458252e-012	-4.458252e-012
3.045765193856616e-005	1.267150e-011	-1.267150e-011
3.403006728106569e-005	2.951491e-011	-2.951491e-011
3.621048059682249e-005	5.245888e-011	-5.245888e-011
3.932287694755620e-005	1.360939e-010	-1.360939e-010
4.105589653387722e-005	2.372155e-010	-2.372155e-010
4.263660953672742e-005	3.958310e-010	-3.958310e-010
4.434108415245858e-005	6.884607e-010	-6.884607e-010
4.594654664267335e-005	1.162393e-009	-1.162393e-009
4.762535522322122e-005	2.010725e-009	-2.010725e-009
4.924436944380871e-005	3.414758e-009	-3.414758e-009
5.090799134489148e-005	5.883943e-009	-5.883943e-009
5.253592098759453e-005	1.002568e-008	-1.002568e-008
5.419127200819150e-005	1.723278e-008	-1.723278e-008
5.582562345245520e-005	2.942019e-008	-2.942019e-008
5.747742606212060e-005	5.049199e-008	-5.049199e-008
5.911785405968703e-005	8.629761e-008	-8.629761e-008
6.077112432275769e-005	1.479590e-007	-1.479590e-007
6.242121436284172e-005	2.530251e-007	-2.530251e-007
6.408546960975842e-005	4.334993e-007	-4.334993e-007
6.575820493307390e-005	7.415041e-007	-7.415041e-007
6.745689915325255e-005	1.269959e-006	-1.269959e-006
6.918823627581174e-005	2.173997e-006	-2.173997e-006
7.097855302836957e-005	3.729392e-006	-3.729392e-006
7.285314667447991e-005	6.411508e-006	-6.411508e-006
7.485747150037330e-005	1.108084e-005	-1.108084e-005
7.704475428920422e-005	1.928276e-005	-1.928276e-005
7.949356315362210e-005	3.390139e-005	-3.390139e-005
8.230466094274056e-005	6.035510e-005	-6.035510e-005
8.562392746984683e-005	1.091815e-004	-1.091815e-004
8.965765604397651e-005	2.013189e-004	-2.013189e-004
9.472332148325664e-005	3.801862e-004	-3.801862e-004
1.013249843818376e-004	7.400601e-004	-7.400601e-004
1.103301023390851e-004	1.500124e-003	-1.500124e-003
1.232826134855353e-004	3.212210e-003	-3.212210e-003
1.434980227862851e-004	7.518521e-003	-7.518521e-003
1.790007528642224e-004	2.037294e-002	-2.037294e-002
2.500062130200968e-004	6.616783e-002	-6.616783e-002
3.920171333318458e-004	2.262485e-001	-2.262485e-001
6.270124148335719e-004	6.482921e-001	-6.482921e-001
9.113955295885585e-004	1.393959e+000	-1.393959e+000
1.302647412840959e-003	2.758736e+000	-2.758736e+000
1.772602006266216e-003	4.750912e+000	-4.750912e+000
2.377070506320243e-003	7.601618e+000	-7.601618e+000
3.083152504404024e-003	1.099988e+001	-1.099988e+001
3.475133215616677e-003	1.280084e+001	-1.280084e+001
3.732632387895783e-003	1.387985e+001	-1.387985e+001
4.033495712198941e-003	1.499934e+001	-1.499934e+001
4.367134345554285e-003	1.605379e+001	-1.605379e+001
4.742972035931977e-003	1.693250e+001	-1.693250e+001
5.352233380584177e-003	1.770705e+001	-1.770705e+001
6.322592476515654e-003	1.807119e+001	-1.807119e+001
7.299154976515654e-003	1.800356e+001	-1.800356e+001
8.275717476515655e-003	1.782860e+001	-1.782860e+001
9.252279976515655e-003	1.765534e+001	-1.765534e+001
1.022884247651566e-002	1.757672e+001	-1.757672e+001
1.120540497651566e-002	1.768834e+001	-1.768834e+001
1.122066376557816e-002	1.769482e+001	-1.769482e+001
1.125118134370316e-002	1.771517e+001	-1.771517e+001
1.131221649995316e-002	1.776136e+001	-1.776136e+001
1.143428681245316e-002	1.787258e+001	-1.787258e+001
1.167842743745316e-002	1.814314e+001	-1.814314e+001
1.216670868745316e-002	1.875297e+001	-1.875297e+001
1.241948714599136e-002	1.906985e+001	-1.906985e+001
1.272006709688972e-002	1.939690e+001	-1.939690e+001
1.310818076708421e-002	1.966533e+001	-1.966533e+001
1.373697277552712e-002	1.978541e+001	-1.978541e+001
1.471353527552712e-002	1.966725e+001	-1.966725e+001
1.546314138792355e-002	1.952024e+001	-1.952024e+001
1.607113746305525e-002	1.940187e+001	-1.940187e+001
1.668116998580847e-002	1.928386e+001	-1.928386e+001
1.723929391582818e-002	1.917663e+001	-1.917663e+001
1.821462408782988e-002	1.899069e+001	-1.899069e+001
1.919118658782988e-002	1.887428e+001	-1.887428e+001
1.985501096009693e-002	1.893310e+001	-1.893310e+001
1.996136803457452e-002	1.898303e+001	-1.898303e+001
2.017408218352970e-002	1.914950e+001	-1.914950e+001
2.059951048144006e-002	1.952246e+001	-1.952246e+001
2.095180062021275e-002	1.982161e+001	-1.982161e+001
2.127621106938335e-002	2.001448e+001	-2.001448e+001
2.180318832562369e-002	2.011227e+001	-2.011227e+001
2.264907942021629e-002	2.002599e+001	-2.002599e+001
2.362564192021629e-002	1.983969e+001	-1.983969e+001
2.460220442021629e-002	1.964689e+001	-1.964689e+001
2.557876692021629e-002	1.945596e+001	-1.945596e+001
2.655532942021629e-002	1.926688e+001	-1.926688e+001
2.753189192021629e-002	1.913757e+001	-1.913757e+001
2.819122778846299e-002	1.916780e+001	-1.916780e+001
2.829737357862242e-002	1.920828e+001	-1.920828e+001
2.850966515894129e-002	1.935144e+001	-1.935144e+001
2.893424831957903e-002	1.968320e+001	-1.968320e+001
2.928686797402103e-002	1.995419e+001	-1.995419e+001
2.961236683800881e-002	2.012658e+001	-2.012658e+001
3.014109266543031e-002	2.020098e+001	-2.020098e+001
3.098966507926454e-002	2.009644e+001	-2.009644e+001
3.179057533618960e-002	1.993934e+001	-1.993934e+001
3.243626108087914e-002	1.981095e+001	-1.981095e+001
3.303230017812828e-002	1.969317e+001	-1.969317e+001
3.352933457800582e-002	1.959551e+001	-1.959551e+001
3.401745979087182e-002	1.950020e+001	-1.950020e+001
3.499371021660383e-002	1.931099e+001	-1.931099e+001
3.597027271660383e-002	1.918096e+001	-1.918096e+001
3.656532272024354e-002	1.921456e+001	-1.921456e+001
3.666847240647980e-002	1.925605e+001	-1.925605e+001
3.687477177895231e-002	1.939744e+001	-1.939744e+001
3.728737052389734e-002	1.971708e+001	-1.971708e+001
3.767082653568973e-002	1.999931e+001	-1.999931e+001
3.802808583702348e-002	2.016791e+001	-2.016791e+001
3.860770447606770e-002	2.022034e+001	-2.022034e+001
3.953364292255471e-002	2.008666e+001	-2.008666e+001
4.051020542255471e-002	1.989148e+001	-1.989148e+001
4.148676792255471e-002	1.969817e+001	-1.969817e+001
4.246333042255471e-002	1.950674e+001	-1.950674e+001
4.343989292255471e-002	1.931717e+001	-1.931717e+001
4.441645542255471e-002	1.918747e+001	-1.918747e+001
4.494184498083517e-002	1.922699e+001	-1.922699e+001
4.504180163783948e-002	1.927116e+001	-1.927116e+001
4.524171495184812e-002	1.941473e+001	-1.941473e+001
4.564154157986539e-002	1.973060e+001	-1.973060e+001
4.601194292214274e-002	2.000345e+001	-2.000345e+001
4.637408185395879e-002	2.017207e+001	-2.017207e+001
4.696149575726117e-002	2.022269e+001	-2.022269e+001
4.789916350077082e-002	2.008616e+001	-2.008616e+001
4.866430969797446e-002	1.993294e+001	-1.993294e+001
4.928662428285702e-002	1.980922e+001	-1.980922e+001
4.986297604950661e-002	1.969536e+001	-1.969536e+001
5.043658369787184e-002	1.958275e+001	-1.958275e+001
5.114095387659395e-002	1.944543e+001	-1.944543e+001
5.211751637659395e-002	1.930049e+001	-1.930049e+001
5.309407887659395e-002	1.924603e+001	-1.924603e+001
5.310823061726226e-002	1.924744e+001	-1.924744e+001
5.313653409859885e-002	1.925407e+001	-1.925407e+001
5.319314106127205e-002	1.927170e+001	-1.927170e+001
5.330635498661845e-002	1.932207e+001	-1.932207e+001
5.353278283731124e-002	1.946086e+001	-1.946086e+001
5.389643789169329e-002	1.973053e+001	-1.973053e+001
5.416274408443918e-002	1.993596e+001	-1.993596e+001
5.441520871464271e-002	2.009906e+001	-2.009906e+001
5.482114388708665e-002	2.024165e+001	-2.024165e+001
5.547820444423371e-002	2.025872e+001	-2.025872e+001
5.645476694423371e-002	2.010349e+001	-2.010349e+001
5.743132944423371e-002	1.990812e+001	-1.990812e+001
5.840789194423371e-002	1.971465e+001	-1.971465e+001
5.938445444423371e-002	1.952306e+001	-1.952306e+001
6.036101694423371e-002	1.935850e+001	-1.935850e+001
6.133757944423371e-002	1.924658e+001	-1.924658e+001
6.135253596372082e-002	1.924632e+001	-1.924632e+001
6.144227508064346e-002	1.925922e+001	-1.925922e+001
6.156192723654030e-002	1.929932e+001	-1.929932e+001
6.180123154833400e-002	1.942938e+001	-1.942938e+001
6.218940328276781e-002	1.970530e+001	-1.970530e+001
6.245425151811888e-002	1.990864e+001	-1.990864e+001
6.273299471203835e-002	2.009344e+001	-2.009344e+001
6.312920143235043e-002	2.024130e+001	-2.024130e+001
6.377084344853023e-002	2.026513e+001	-2.026513e+001
6.474740594853023e-002	2.011210e+001	-2.011210e+001
6.548079846061854e-002	1.996501e+001	-1.996501e+001
6.608656212007133e-002	1.984439e+001	-1.984439e+001
6.668895985495130e-002	1.972519e+001	-1.972519e+001
6.724732364725586e-002	1.961546e+001	-1.961546e+001
6.822388614725586e-002	1.942504e+001	-1.942504e+001
6.920044864725586e-002	1.928620e+001	-1.928620e+001
6.985863322565465e-002	1.929544e+001	-1.929544e+001
6.996472486912019e-002	1.932992e+001	-1.932992e+001
7.017690815605124e-002	1.945966e+001	-1.945966e+001
7.060127472991336e-002	1.976796e+001	-1.976796e+001
7.095397878026739e-002	2.002275e+001	-2.002275e+001
7.127975641785601e-002	2.018359e+001	-2.018359e+001
7.180893005788201e-002	2.024590e+001	-2.024590e+001
7.265818892536581e-002	2.013260e+001	-2.013260e+001
7.363475142536581e-002	1.993871e+001	-1.993871e+001
7.461131392536581e-002	1.974494e+001	-1.974494e+001
7.558787642536581e-002	1.955305e+001	-1.955305e+001
7.656443892536581e-002	1.936303e+001	-1.936303e+001
7.754100142536581e-002	1.922880e+001	-1.922880e+001
7.819478653086025e-002	1.924858e+001	-1.924858e+001
7.830067143684533e-002	1.928582e+001	-1.928582e+001
7.851244124881548e-002	1.942108e+001	-1.942108e+001
7.893598087275580e-002	1.973835e+001	-1.973835e+001
7.928900696655883e-002	1.999960e+001	-1.999960e+001
7.961584839486414e-002	2.016483e+001	-2.016483e+001
8.014673070128903e-002	2.023043e+001	-2.023043e+001
8.099860789692652e-002	2.011833e+001	-2.011833e+001
8.179110332395299e-002	1.996112e+001	-1.996112e+001
8.243584117574913e-002	1.983278e+001	-1.983278e+001
8.303262342240175e-002	1.971473e+001	-1.971473e+001
8.352981329418394e-002	1.961692e+001	-1.961692e+001
8.401798005421221e-002	1.952151e+001	-1.952151e+001
8.499431357426877e-002	1.933207e+001	-1.933207e+001
8.597087607426877e-002	1.920097e+001	-1.920097e+001
8.656555518155672e-002	1.923235e+001	-1.923235e+001
8.666868773180297e-002	1.927309e+001	-1.927309e+001
8.687495283229549e-002	1.941273e+001	-1.941273e+001
8.728748303328053e-002	1.972928e+001	-1.972928e+001
8.767086858021703e-002	2.000909e+001	-2.000909e+001
8.802815424413053e-002	2.017613e+001	-2.017613e+001
8.860781501555763e-002	2.022735e+001	-2.022735e+001
8.953381694708064e-002	2.009321e+001	-2.009321e+001
9.051037944708064e-002	1.989797e+001	-1.989797e+001
9.148694194708064e-002	1.970460e+001	-1.970460e+001
9.246350444708064e-002	1.951310e+001	-1.951310e+001
9.344006694708064e-002	1.932347e+001	-1.932347e+001
9.441662944708064e-002	1.919345e+001	-1.919345e+001
9.494191116491300e-002	1.923237e+001	-1.923237e+001
9.504186291462459e-002	1.927632e+001	-1.927632e+001
9.524176641404776e-002	1.941937e+001	-1.941937e+001
9.564157341289412e-002	1.973431e+001	-1.973431e+001
9.601195480613992e-002	2.000645e+001	-2.000645e+001
9.637410118796970e-002	2.017459e+001	-2.017459e+001
9.696152698763283e-002	2.022482e+001	-2.022482e+001
9.789921260557635e-002	2.008815e+001	-2.008815e+001
9.865869572324260e-002	1.993604e+001	-1.993604e+001
9.928098808751237e-002	1.981233e+001	-1.981233e+001
9.990790867142535e-002	1.968849e+001	-1.968849e+001
1.004853306755227e-001	1.957517e+001	-1.957517e+001
1.012561612289946e-001	1.942501e+001	-1.942501e+001
1.022327237289946e-001	1.927397e+001	-1.927397e+001
1.030712883597032e-001	1.923297e+001	-1.923297e+001
1.031861448526604e-001	1.925799e+001	-1.925799e+001
1.034158578385748e-001	1.937940e+001	-1.937940e+001
1.038752838104037e-001	1.970083e+001	-1.970083e+001
1.041550492291178e-001	1.991485e+001	-1.991485e+001
1.044123486570735e-001	2.008405e+001	-2.008405e+001
1.048164945946420e-001	2.022997e+001	-2.022997e+001
1.054707217588694e-001	2.025016e+001	-2.025016e+001
1.064472842588694e-001	2.009603e+001	-2.009603e+001
1.074238467588694e-001	1.990074e+001	-1.990074e+001
1.084004092588694e-001	1.970734e+001	-1.970734e+001
1.093769717588694e-001	1.951582e+001	-1.951582e+001
1.103535342588694e-001	1.935033e+001	-1.935033e+001
1.113300967588694e-001	1.925047e+001	-1.925047e+001
1.114502807188617e-001	1.926574e+001	-1.926574e+001
1.116906486388463e-001	1.937334e+001	-1.937334e+001
1.121713844788155e-001	1.968887e+001	-1.968887e+001
1.124222382288120e-001	1.987773e+001	-1.987773e+001
1.127210903926842e-001	2.008025e+001	-2.008025e+001
1.131098447968596e-001	2.023245e+001	-2.023245e+001
1.137396549102410e-001	2.026172e+001	-2.026172e+001
1.147162174102410e-001	2.011059e+001	-2.011059e+001
1.154515666461529e-001	1.996312e+001	-1.996312e+001
1.160595837473794e-001	1.984207e+001	-1.984207e+001
1.166645549855612e-001	1.972237e+001	-1.972237e+001
1.172275086721459e-001	1.961175e+001	-1.961175e+001
1.181728502199237e-001	1.942742e+001	-1.942742e+001
1.191494127199237e-001	1.928693e+001	-1.928693e+001
1.198386100754717e-001	1.928932e+001	-1.928932e+001
1.199461672078010e-001	1.932226e+001	-1.932226e+001
1.201612814724597e-001	1.945056e+001	-1.945056e+001
1.205915100017770e-001	1.976059e+001	-1.976059e+001
1.209419225478754e-001	2.001503e+001	-2.001503e+001
1.212601321083631e-001	2.017706e+001	-2.017706e+001
1.217771421125235e-001	2.024891e+001	-2.024891e+001
1.226077211573799e-001	2.014987e+001	-2.014987e+001
1.235842836573799e-001	1.995961e+001	-1.995961e+001
1.245608461573799e-001	1.976564e+001	-1.976564e+001
1.255374086573799e-001	1.957356e+001	-1.957356e+001
1.265139711573799e-001	1.938334e+001	-1.938334e+001
1.274905336573799e-001	1.924667e+001	-1.924667e+001
1.281750089805313e-001	1.925819e+001	-1.925819e+001
1.282823420243139e-001	1.929327e+001	-1.929327e+001
1.284970081118790e-001	1.942558e+001	-1.942558e+001
1.289263402870094e-001	1.974187e+001	-1.974187e+001
1.292771042200576e-001	2.000081e+001	-2.000081e+001
1.295964741364563e-001	2.016580e+001	-2.016580e+001
1.301153499697295e-001	2.023946e+001	-2.023946e+001
1.309487989522878e-001	2.014091e+001	-2.014091e+001
1.317458039169475e-001	1.998587e+001	-1.998587e+001
1.323949667136081e-001	1.985648e+001	-1.985648e+001
1.329954182226399e-001	1.973757e+001	-1.973757e+001
1.335066903745256e-001	1.963689e+001	-1.963689e+001
1.340103889926168e-001	1.953834e+001	-1.953834e+001
1.349869514926168e-001	1.934869e+001	-1.934869e+001
1.359635139926168e-001	1.921660e+001	-1.921660e+001
1.365627174982252e-001	1.924555e+001	-1.924555e+001
1.366660591917689e-001	1.928550e+001	-1.928550e+001
1.368727425788565e-001	1.942361e+001	-1.942361e+001
1.372861093530316e-001	1.973803e+001	-1.973803e+001
1.376703552222474e-001	2.001662e+001	-2.001662e+001
1.380273190007987e-001	2.018247e+001	-2.018247e+001
1.386064653254206e-001	2.023288e+001	-2.023288e+001
1.395316920226432e-001	2.009858e+001	-2.009858e+001
1.405082545226432e-001	1.990328e+001	-1.990328e+001
1.414848170226432e-001	1.970985e+001	-1.970985e+001
1.424613795226432e-001	1.951831e+001	-1.951831e+001
1.434379420226432e-001	1.932863e+001	-1.932863e+001
1.444145045226432e-001	1.919835e+001	-1.919835e+001
1.449411029437714e-001	1.923668e+001	-1.923668e+001
1.450411146170178e-001	1.928039e+001	-1.928039e+001
1.452411379635106e-001	1.942297e+001	-1.942297e+001
1.456411846564961e-001	1.973723e+001	-1.973723e+001
1.460118096733036e-001	2.000896e+001	-2.000896e+001
1.463738650719867e-001	2.017669e+001	-2.017669e+001
1.469611455865018e-001	2.022665e+001	-2.022665e+001
1.478986129062715e-001	2.008991e+001	-2.008991e+001
1.486532073431664e-001	1.993877e+001	-1.993877e+001
1.492755415663672e-001	1.981503e+001	-1.981503e+001
1.498963144564287e-001	1.969239e+001	-1.969239e+001
1.504750337675008e-001	1.957879e+001	-1.957879e+001
1.512293007984449e-001	1.943181e+001	-1.943181e+001
1.522058632984449e-001	1.927896e+001	-1.927896e+001
1.530601870274474e-001	1.923110e+001	-1.923110e+001
1.531758413924089e-001	1.925492e+001	-1.925492e+001
1.534071501223320e-001	1.937486e+001	-1.937486e+001
1.538697675821781e-001	1.969636e+001	-1.969636e+001
1.541452509634164e-001	1.990700e+001	-1.990700e+001
1.544087067004374e-001	2.008132e+001	-2.008132e+001
1.548105739926481e-001	2.022855e+001	-2.022855e+001
1.554611912002603e-001	2.025038e+001	-2.025038e+001
1.564377537002603e-001	2.009682e+001	-2.009682e+001
1.574143162002603e-001	1.990151e+001	-1.990151e+001
1.583908787002603e-001	1.970811e+001	-1.970811e+001
1.593674412002603e-001	1.951658e+001	-1.951658e+001
1.603440037002603e-001	1.934931e+001	-1.934931e+001
1.613205662002603e-001	1.924397e+001	-1.924397e+001
1.614414264840616e-001	1.925830e+001	-1.925830e+001
1.616831470516642e-001	1.936486e+001	-1.936486e+001
1.621665881868694e-001	1.968109e+001	-1.968109e+001
1.624194602552046e-001	1.987175e+001	-1.987175e+001
1.627200570942976e-001	2.007635e+001	-2.007635e+001
1.631081645012936e-001	2.022937e+001	-2.022937e+001
1.637369465570859e-001	2.025946e+001	-2.025946e+001
1.647135090570859e-001	2.010862e+001	-2.010862e+001
1.654437017976311e-001	1.996219e+001	-1.996219e+001
1.660519627005768e-001	1.984110e+001	-1.984110e+001
1.666572912614334e-001	1.972135e+001	-1.972135e+001
1.672224886803265e-001	1.961029e+001	-1.961029e+001
1.681540114212071e-001	1.942865e+001	-1.942865e+001
1.691305739212071e-001	1.928748e+001	-1.928748e+001
1.698311784927390e-001	1.928714e+001	-1.928714e+001
1.699392784386607e-001	1.931948e+001	-1.931948e+001
1.701554783305040e-001	1.944720e+001	-1.944720e+001
1.705878781141907e-001	1.975782e+001	-1.975782e+001
1.709374379843614e-001	2.001211e+001	-2.001211e+001
1.712528320750748e-001	2.017459e+001	-2.017459e+001
1.717653135718659e-001	2.025026e+001	-2.025026e+001
1.725889202815031e-001	2.015697e+001	-2.015697e+001
1.735654827815031e-001	1.996826e+001	-1.996826e+001
1.745420452815031e-001	1.977420e+001	-1.977420e+001
1.755186077815031e-001	1.958204e+001	-1.958204e+001
1.764951702815031e-001	1.939173e+001	-1.939173e+001
1.774717327815031e-001	1.925403e+001	-1.925403e+001
1.781676015888643e-001	1.926210e+001	-1.926210e+001
1.782754759270426e-001	1.929632e+001	-1.929632e+001
1.784912246033992e-001	1.942744e+001	-1.942744e+001
1.789227219561125e-001	1.974326e+001	-1.974326e+001
1.792726364807676e-001	2.000129e+001	-2.000129e+001
1.795892015693100e-001	2.016619e+001	-2.016619e+001
1.801035667635524e-001	2.024309e+001	-2.024309e+001
1.809300748779101e-001	2.015000e+001	-2.015000e+001
1.817251874347348e-001	1.999663e+001	-1.999663e+001
1.823759007516545e-001	1.986687e+001	-1.986687e+001
1.829783463799206e-001	1.974750e+001	-1.974750e+001
1.834955674165485e-001	1.964560e+001	-1.964560e+001
1.840057511493278e-001	1.954574e+001	-1.954574e+001
1.849823136493278e-001	1.935601e+001	-1.935601e+001
1.859588761493278e-001	1.922346e+001	-1.922346e+001
1.865609284822540e-001	1.925121e+001	-1.925121e+001
1.866644019876918e-001	1.929078e+001	-1.929078e+001
1.868713489985673e-001	1.942817e+001	-1.942817e+001
1.872852430203183e-001	1.974170e+001	-1.974170e+001
1.876700314465992e-001	2.001988e+001	-2.001988e+001
1.880267922095045e-001	2.018521e+001	-2.018521e+001
1.886056140536932e-001	2.023529e+001	-2.023529e+001
1.895303517080022e-001	2.010095e+001	-2.010095e+001
1.905069142080022e-001	1.990563e+001	-1.990563e+001
1.914834767080022e-001	1.971219e+001	-1.971219e+001
1.924600392080022e-001	1.952062e+001	-1.952062e+001
1.934366017080022e-001	1.933092e+001	-1.933092e+001
1.944131642080022e-001	1.920053e+001	-1.920053e+001
1.949405930599938e-001	1.923857e+001	-1.923857e+001
1.950406425340138e-001	1.928217e+001	-1.928217e+001
1.952407414820538e-001	1.942453e+001	-1.942453e+001
1.956409393781337e-001	1.973850e+001	-1.973850e+001
1.960117181032028e-001	2.001008e+001	-2.001008e+001
1.963737160968138e-001	2.017763e+001	-2.017763e+001
1.969609049436473e-001	2.022747e+001	-2.022747e+001
