time	V(n002)	V(n005)
0	0	0
0	0.0000001865321	0.00000005442444
0	0.0000003730641	0.0000001477249
0.0000000001562499991	0.0000007461283	0.0000003523001
0.0000000003124999981	0.000001492257	0.0000006543718
0.0000000006249999962	0.000002984513	0.0000004821296
0.000000001249999992	0.000005969026	-0.000003690506
0.000000002499999985	0.00001193805	-0.00002650302
0.00000000499999997	0.0000238761	-0.0001119633
0.000000009999999939	0.00004775221	-0.0003575469
0.00000001999999988	0.00009550442	-0.0009349011
0.00000003999999976	0.0001910088	-0.002140919
0.000001472723213	0.007037646	-0.08899075
0.000002905446426	0.01387649	-0.1758387
0.000004338169639	0.02070754	-0.2626846
0.000005770892853	0.02753079	-0.3495287
0.000007203616066	0.03434626	-0.4363708
0.000008636339279	0.04115392	-0.523211
0.00001006906249	0.0479538	-0.6100492
0.00001383580356	0.06583355	-0.8389113
0.00001760254464	0.08346868	-1.065005
0.00002136928571	0.1008592	-1.288331
0.00002513602678	0.1180051	-1.508889
0.00002890276785	0.1349064	-1.72668
0.00003266950892	0.1515631	-1.941702
0.00003643624999	0.1679751	-2.153956
0.00003894741071	0.1786713	-2.292351
0.00004145857142	0.189164	-2.428168
0.00004396973214	0.1994533	-2.561406
0.00004648089285	0.2095391	-2.692066
0.00004899205356	0.2194215	-2.820147
0.00005150321428	0.2291006	-2.94565
0.00005401437499	0.2385761	-3.068574
0.00005596749999	0.2457629	-3.161801
0.00005889718749	0.2562642	-3.298038
0.00006182687499	0.2664181	-3.429776
0.00006657017856	0.2822018	-3.634635
0.00007131348214	0.2968647	-3.824773
0.00007605678571	0.3104068	-4.000192
0.00008080008928	0.3228282	-4.16089
0.00008554339285	0.3341288	-4.306868
0.00009028669642	0.3443087	-4.438127
0.00009502999999	0.3533678	-4.554665
0.0001053536607	0.3684394	-4.746489
0.0001156773214	0.377259	-4.855951
0.0001260009821	0.3798267	-4.88305
0.0001363246428	0.3761424	-4.827788
0.0001466483036	0.3662061	-4.690164
0.0001569719643	0.3500179	-4.470178
0.000167295625	0.3275777	-4.16783
0.0001709228571	0.318406	-4.044991
0.0001745500893	0.3086274	-3.914367
0.0001781773214	0.2982418	-3.775957
0.0001818045536	0.2872494	-3.629762
0.0001854317857	0.2756501	-3.475782
0.0001890590178	0.2634438	-3.314016
0.00019268625	0.2506307	-3.144464
0.000194639375	0.2435455	-3.050879
0.0001956159375	0.2399476	-3.003392
0.0001965925	0.2363136	-2.955453
0.000198545625	0.2289394	-2.85825
0.0002014753125	0.2176209	-2.709252
0.0002053815625	0.201973	-2.503527
0.0002092878125	0.1859378	-2.2933
0.0002131940625	0.1695155	-2.078573
0.0002171003125	0.1527058	-1.859345
0.0002210065625	0.135509	-1.635617
0.0002249128125	0.1179249	-1.407387
0.0002288190625	0.09995362	-1.174657
0.0002310512053	0.08961141	-1.041097
0.0002332833482	0.07921925	-0.9071731
0.0002355154911	0.06877715	-0.7728854
0.0002377476339	0.0582851	-0.6382339
0.0002399797768	0.0477431	-0.5032184
0.0002422119196	0.03715116	-0.367839
0.0002444440625	0.02650928	-0.2320957
0.00024737375	0.01253865	-0.05444114
0.0002483503125	0.007877058	0.0047055
0.0002501639286	-0.0007940214	0.1145676
0.0002519775446	-0.009453463	0.2240137
0.0002537911607	-0.01810127	0.3330438
0.0002556047768	-0.02673743	0.4416578
0.0002574183928	-0.03536196	0.5498557
0.0002592320089	-0.04397485	0.6576376
0.000261045625	-0.05257609	0.7650034
0.0002655099107	-0.07375456	1.028416
0.0002699741964	-0.0945411	1.284435
0.0002744384821	-0.1149357	1.533062
0.0002789027678	-0.1349384	1.774295
0.0002833670536	-0.1545492	2.008136
0.0002878313393	-0.1737681	2.234584
0.000292295625	-0.1925951	2.453639
0.0002971784375	-0.2124846	2.680364
0.00030206125	-0.2314071	2.890931
0.0003069440625	-0.2493626	3.08534
0.000311826875	-0.2663511	3.26359
0.0003167096875	-0.2823725	3.425681
0.0003215925	-0.2974269	3.571615
0.0003264753125	-0.3115143	3.70139
0.0003296840178	-0.3200627	3.775281
0.0003328927232	-0.3280609	3.842363
0.0003361014286	-0.3355089	3.902635
0.0003393101339	-0.3424068	3.956096
0.0003425188393	-0.3487546	4.002748
0.0003457275446	-0.3545521	4.042589
0.00034893625	-0.3597995	4.075621
0.0003518659375	-0.3640553	4.101823
0.000354795625	-0.3678177	4.123842
0.0003577253125	-0.3710816	4.14201
0.000360655	-0.3738426	4.156632
0.0003635846875	-0.376097	4.167979
0.000366514375	-0.3778416	4.176277
0.0003694440625	-0.3790742	4.181704
0.00037237375	-0.3797931	4.184382
0.0003753034375	-0.3799972	4.184381
0.000378233125	-0.3796864	4.18171
0.0003811628125	-0.378861	4.176325
0.0003840925	-0.3775222	4.168123
0.0003870221875	-0.3756717	4.156948
0.000389951875	-0.3733121	4.142592
0.0003928815625	-0.3704467	4.124803
0.00039581125	-0.3670791	4.103286
0.0003987409375	-0.3632141	4.07772
0.000401670625	-0.3588568	4.047765
0.0004046003125	-0.3540132	4.013073
0.00040753	-0.3486898	3.97331
0.0004104596875	-0.3428939	3.928158
0.000413389375	-0.3366333	3.877336
0.0004182721875	-0.3250538	3.77899
0.000423155	-0.3123823	3.663591
0.0004280378125	-0.2986187	3.531139
0.000432920625	-0.2837631	3.381634
0.0004378034375	-0.2678154	3.215076
0.00044268625	-0.2507757	3.031466
0.0004475690625	-0.232644	2.830802
0.000452451875	-0.2135868	2.613438
0.0004573346875	-0.1939176	2.385423
0.0004622175	-0.1736365	2.146757
0.0004671003125	-0.1527433	1.897439
0.000471983125	-0.1312381	1.637469
0.0004768659375	-0.1091209	1.366848
0.00048174875	-0.08639167	1.085576
0.0004842599107	-0.0746437	0.9395881
0.0004867710714	-0.06285089	0.792582
0.0004892822321	-0.05101324	0.6445579
0.0004917933928	-0.03913075	0.4955158
0.0004943045536	-0.02720343	0.3454558
0.0004968157143	-0.01523128	0.1943777
0.000499326875	-0.003214282	0.04228155
0.00050128	0.006112019	-0.07595365
0.0005120221875	0.05719047	-0.7268528
0.0005162074553	0.07699148	-0.9806814
0.0005203927232	0.09644787	-1.230482
0.0005245779911	0.1155597	-1.476255
0.0005287632589	0.1343268	-1.718
0.0005329485268	0.1527494	-1.955716
0.0005371337946	0.1708274	-2.189405
0.0005413190625	0.1885607	-2.419066
0.0005432721875	0.1966121	-2.523345
0.0005452253125	0.2045334	-2.625964
0.0005471784375	0.2123245	-2.726923
0.0005491315625	0.2199855	-2.826223
0.0005510846875	0.2275164	-2.923864
0.0005530378125	0.2349171	-3.019845
0.0005549909375	0.2421878	-3.114166
0.0005569440625	0.2493011	-3.206445
0.00055987375	0.2596881	-3.341205
0.0005643380357	0.2749355	-3.539113
0.0005688023214	0.2892146	-3.72432
0.0005732666071	0.3025253	-3.896825
0.0005777308928	0.3148677	-4.05663
0.0005821951786	0.3262417	-4.203733
0.0005866594643	0.3366474	-4.338135
0.00059112375	0.3460847	-4.459836
0.0006020054464	0.3642669	-4.692367
0.0006128871428	0.3755071	-4.833422
0.0006237688393	0.3798053	-4.883003
0.0006346505357	0.3771614	-4.841108
0.0006455322321	0.3675755	-4.707738
0.0006564139286	0.3510476	-4.482894
0.000667295625	0.3275777	-4.166574
0.0006709228571	0.318406	-4.043734
0.0006745500893	0.3086274	-3.913109
0.0006781773214	0.2982418	-3.774698
0.0006818045536	0.2872494	-3.628502
0.0006854317857	0.2756501	-3.474521
0.0006890590178	0.2634438	-3.312754
0.00069268625	0.2506307	-3.143201
0.000694639375	0.2435455	-3.049615
0.0006956159375	0.2399476	-3.002128
0.0006965925	0.2363136	-2.954189
0.000698545625	0.2289394	-2.856985
0.0007014753125	0.2176209	-2.707986
0.0007053815625	0.201973	-2.502258
0.0007092878125	0.1859378	-2.29203
0.0007131940625	0.1695155	-2.077301
0.0007171003125	0.1527058	-1.858071
0.0007210065625	0.135509	-1.63434
0.0007249128125	0.1179249	-1.406108
0.0007288190625	0.09995362	-1.173375
0.0007310512053	0.08961141	-1.039813
0.0007332833482	0.07921925	-0.9058877
0.0007355154911	0.06877715	-0.7715982
0.0007377476339	0.0582851	-0.6369446
0.0007399797768	0.0477431	-0.5019271
0.0007422119196	0.03715116	-0.3665455
0.0007444440625	0.02650928	-0.2307999
0.00074737375	0.01253865	-0.05314215
0.0007483503125	0.007877058	0.006005602
0.0007501639286	-0.0007940214	0.1158698
0.0007519775446	-0.009453463	0.2253182
0.0007537911607	-0.01810127	0.3343505
0.0007556047768	-0.02673743	0.442967
0.0007574183928	-0.03536196	0.5511675
0.0007592320089	-0.04397485	0.6589521
0.000761045625	-0.05257609	0.7663208
0.0007655099107	-0.07375456	1.02974
0.0007699741964	-0.0945411	1.285768
0.0007744384821	-0.1149357	1.534404
0.0007789027678	-0.1349384	1.775649
0.0007833670536	-0.1545492	2.009502
0.0007878313393	-0.1737681	2.235964
0.000792295625	-0.1925951	2.455034
0.0007971784375	-0.2124846	2.681778
0.00080206125	-0.2314071	2.892368
0.0008069440625	-0.2493626	3.086803
0.000811826875	-0.2663511	3.265083
0.0008167096875	-0.2823725	3.427209
0.0008215925	-0.2974269	3.573181
0.0008264753125	-0.3115143	3.702998
0.0008296840178	-0.3200627	3.77692
0.0008328927232	-0.3280609	3.844033
0.0008361014286	-0.3355089	3.904335
0.0008393101339	-0.3424068	3.957828
0.0008425188393	-0.3487546	4.00451
0.0008457275446	-0.3545521	4.044381
0.00084893625	-0.3597995	4.077443
0.0008518659375	-0.3640553	4.10367
0.000854795625	-0.3678177	4.125711
0.0008577253125	-0.3710816	4.143898
0.000860655	-0.3738426	4.158537
0.0008635846875	-0.376097	4.169898
0.000866514375	-0.3778416	4.178206
0.0008694440625	-0.3790742	4.18364
0.00087237375	-0.3797931	4.186322
0.0008753034375	-0.3799972	4.186321
0.000878233125	-0.3796864	4.183648
0.0008811628125	-0.378861	4.178257
0.0008840925	-0.3775222	4.170045
0.0008870221875	-0.3756717	4.158858
0.000889951875	-0.3733121	4.144486
0.0008928815625	-0.3704467	4.126678
0.00089581125	-0.3670791	4.10514
0.0008987409375	-0.3632141	4.079551
0.000901670625	-0.3588568	4.04957
0.0009046003125	-0.3540132	4.014852
0.00090753	-0.3486898	3.975059
0.0009104596875	-0.3428939	3.929878
0.000913389375	-0.3366333	3.879027
0.0009182721875	-0.3250538	3.780633
0.000923155	-0.3123823	3.665189
0.0009280378125	-0.2986187	3.532697
0.000932920625	-0.2837631	3.383155
0.0009378034375	-0.2678154	3.216565
0.00094268625	-0.2507757	3.032925
0.0009475690625	-0.232644	2.832236
0.000952451875	-0.2135868	2.614852
0.0009573346875	-0.1939176	2.386818
0.0009622175	-0.1736365	2.148135
0.0009671003125	-0.1527433	1.898802
0.000971983125	-0.1312381	1.638821
0.0009768659375	-0.1091209	1.368189
0.00098174875	-0.08639167	1.086909
0.0009827253125	-0.0818441	1.030492
0.0009849574553	-0.07138368	0.9003517
0.0009871895982	-0.06088783	0.7694074
0.0009894217411	-0.05035655	0.6376589
0.0009916538839	-0.03978983	0.5051063
0.0009938860268	-0.02918767	0.3717496
0.0009961181696	-0.01855008	0.2375887
0.0009983503125	-0.007877058	0.1026236
0.000999326875	-0.003214282	0.04359437
0.001	0	0.002876743