time	V(n002)	V(n005)
0.000000000000000e+000	0.000000e+000	-2.357594e-015
4.464285687154149e-011	5.609987e-008	3.274330e-008
8.928571374308298e-011	1.121997e-007	7.054259e-008
1.339285706146245e-010	1.682996e-007	1.133979e-007
1.785714274861660e-010	2.243995e-007	1.613091e-007
2.232142843577075e-010	2.804994e-007	2.142764e-007
2.678571412292489e-010	3.365992e-007	2.722997e-007
3.124999981007903e-010	3.926991e-007	3.353789e-007
3.226339274584918e-007	4.054444e-004	4.013168e-004
6.449553549188828e-007	8.104744e-004	8.022601e-004
9.672767823792739e-007	1.215483e-003	1.203165e-003
1.289598209839665e-006	1.620470e-003	1.604032e-003
1.611919637300056e-006	2.025435e-003	2.004861e-003
1.934241064760447e-006	2.430378e-003	2.405652e-003
2.256562492220837e-006	2.835300e-003	2.806404e-003
5.604776777935126e-006	7.055715e-003	6.982698e-003
8.952991063649416e-006	1.124526e-002	1.112700e-002
1.230120534936370e-005	1.540395e-002	1.523931e-002
1.564941963507799e-005	1.953176e-002	1.931963e-002
1.899763392079228e-005	2.362871e-002	2.336795e-002
2.234584820650657e-005	2.769479e-002	2.738428e-002
2.569406249222085e-005	3.173001e-002	3.136862e-002
3.169294642079229e-005	3.887272e-002	3.841722e-002
3.769183034936372e-005	4.570290e-002	4.515246e-002
4.369071427793516e-005	5.222053e-002	5.157436e-002
4.968959820650659e-005	5.842563e-002	5.768291e-002
5.568848213507803e-005	6.431818e-002	6.347811e-002
6.168736606364947e-005	6.989820e-002	6.895997e-002
6.768624999222088e-005	7.516568e-002	7.412848e-002
7.954450892079232e-005	8.433826e-002	8.310308e-002
9.140276784936377e-005	9.138983e-002	8.997384e-002
1.032610267779352e-004	9.632039e-002	9.474076e-002
1.151192857065066e-004	9.912994e-002	9.740382e-002
1.269775446350781e-004	9.981847e-002	9.796304e-002
1.388358035636495e-004	9.838600e-002	9.641841e-002
1.506940624922209e-004	9.483252e-002	9.276994e-002
1.583670535636495e-004	9.120864e-002	8.910343e-002
1.660400446350781e-004	8.685844e-002	8.472271e-002
1.737130357065067e-004	8.178191e-002	7.962777e-002
1.813860267779353e-004	7.597904e-002	7.381863e-002
1.890590178493639e-004	6.944985e-002	6.729527e-002
1.967320089207924e-004	6.219433e-002	6.005770e-002
2.044049999922210e-004	5.421248e-002	5.210591e-002
2.090087946350782e-004	4.921859e-002	4.713616e-002
2.136125892779353e-004	4.410399e-002	4.204968e-002
2.182163839207924e-004	3.886868e-002	3.684645e-002
2.228201785636496e-004	3.351266e-002	3.152650e-002
2.274239732065067e-004	2.803594e-002	2.608980e-002
2.320277678493639e-004	2.243851e-002	2.053637e-002
2.366315624922210e-004	1.672037e-002	1.486621e-002
2.383056696350782e-004	1.464038e-002	1.280445e-002
2.399797767779353e-004	1.255622e-002	1.073896e-002
2.416538839207925e-004	1.046789e-002	8.669745e-003
2.433279910636496e-004	8.375399e-003	6.596792e-003
2.450020982065068e-004	6.278737e-003	4.520107e-003
2.466762053493639e-004	4.177908e-003	2.439689e-003
2.483503124922210e-004	2.072910e-003	3.555387e-004
2.504429464207925e-004	-5.611556e-004	-2.251878e-003
2.525355803493639e-004	-3.190298e-003	-4.853806e-003
2.546282142779353e-004	-5.814518e-003	-7.450246e-003
2.567208482065067e-004	-8.433815e-003	-1.004120e-002
2.588134821350782e-004	-1.104819e-002	-1.262666e-002
2.609061160636496e-004	-1.365764e-002	-1.520663e-002
2.629987499922210e-004	-1.626217e-002	-1.778112e-002
2.680210714207925e-004	-2.251160e-002	-2.395578e-002
2.730433928493639e-004	-2.861241e-002	-2.998007e-002
2.780657142779353e-004	-3.456460e-002	-3.585399e-002
2.830880357065067e-004	-4.036818e-002	-4.157754e-002
2.881103571350782e-004	-4.602313e-002	-4.715072e-002
2.931326785636496e-004	-5.152947e-002	-5.257353e-002
2.981549999922211e-004	-5.688719e-002	-5.784597e-002
3.062465178493639e-004	-6.510035e-002	-6.591845e-002
3.143380357065068e-004	-7.247612e-002	-7.315712e-002
3.224295535636497e-004	-7.901449e-002	-7.956197e-002
3.305210714207925e-004	-8.471549e-002	-8.513300e-002
3.386125892779354e-004	-8.957909e-002	-8.987021e-002
3.467041071350782e-004	-9.360530e-002	-9.377360e-002
3.547956249922211e-004	-9.679413e-002	-9.684317e-002
3.659563392779354e-004	-9.923772e-002	-9.913637e-002
3.771170535636497e-004	-9.981279e-002	-9.958439e-002
3.882777678493640e-004	-9.851936e-002	-9.818725e-002
3.994384821350783e-004	-9.535741e-002	-9.494493e-002
4.105991964207926e-004	-9.032695e-002	-8.985744e-002
4.217599107065069e-004	-8.342799e-002	-8.292479e-002
4.329206249922212e-004	-7.466051e-002	-7.414696e-002
4.389195089207926e-004	-6.935097e-002	-6.884484e-002
4.449183928493640e-004	-6.373248e-002	-6.324087e-002
4.509172767779355e-004	-5.780505e-002	-5.733506e-002
4.569161607065069e-004	-5.156868e-002	-5.112741e-002
4.629150446350783e-004	-4.502336e-002	-4.461791e-002
4.689139285636498e-004	-3.816909e-002	-3.780656e-002
4.749128124922212e-004	-3.100588e-002	-3.069337e-002
4.781215178493641e-004	-2.713219e-002	-2.684889e-002
4.813302232065069e-004	-2.323039e-002	-2.297789e-002
4.845389285636498e-004	-1.930047e-002	-1.908039e-002
4.877476339207926e-004	-1.534243e-002	-1.515637e-002
4.909563392779355e-004	-1.135628e-002	-1.120584e-002
4.941650446350784e-004	-7.342021e-003	-7.228806e-003
4.973737499922212e-004	-3.299644e-003	-3.225257e-003
4.989083482065069e-004	-1.369975e-003	-1.314604e-003
5.004429464207926e-004	5.584115e-004	5.944739e-004
5.019775446350783e-004	2.485516e-003	2.501976e-003
5.035121428493641e-004	4.411339e-003	4.407903e-003
5.050467410636498e-004	6.335880e-003	6.312255e-003
5.065813392779355e-004	8.259140e-003	8.215031e-003
5.081159374922212e-004	1.018112e-002	1.011623e-002
5.124407142779355e-004	1.560846e-002	1.548321e-002
5.167654910636498e-004	2.095102e-002	2.076391e-002
5.210902678493641e-004	2.620880e-002	2.595834e-002
5.254150446350783e-004	3.138178e-002	3.106650e-002
5.297398214207926e-004	3.646997e-002	3.608840e-002
5.340645982065069e-004	4.147338e-002	4.102402e-002
5.383893749922212e-004	4.639200e-002	4.587337e-002
5.455043303493641e-004	5.424597e-002	5.361027e-002
5.526192857065069e-004	6.153439e-002	6.078256e-002
5.597342410636498e-004	6.825726e-002	6.739025e-002
5.668491964207926e-004	7.441458e-002	7.343334e-002
5.739641517779355e-004	8.000634e-002	7.891182e-002
5.810791071350785e-004	8.503256e-002	8.382570e-002
5.881940624922213e-004	8.949322e-002	8.817498e-002
6.011683928493642e-004	9.551271e-002	9.399749e-002
6.141427232065070e-004	9.897054e-002	9.728588e-002
6.271170535636499e-004	9.986672e-002	9.804015e-002
6.400913839207927e-004	9.820124e-002	9.626030e-002
6.530657142779356e-004	9.397411e-002	9.194633e-002
6.660400446350785e-004	8.718533e-002	8.509823e-002
6.790143749922213e-004	7.783489e-002	7.571602e-002
6.851527678493642e-004	7.267489e-002	7.055683e-002
6.912911607065070e-004	6.717056e-002	6.506100e-002
6.974295535636500e-004	6.132193e-002	5.922851e-002
7.035679464207928e-004	5.512897e-002	5.305938e-002
7.097063392779357e-004	4.859170e-002	4.655360e-002
7.158447321350786e-004	4.171011e-002	3.971117e-002
7.219831249922214e-004	3.448420e-002	3.253210e-002
7.253313392779357e-004	3.048731e-002	2.856369e-002
7.286795535636500e-004	2.645449e-002	2.456125e-002
7.320277678493643e-004	2.238574e-002	2.052478e-002
7.353759821350785e-004	1.828106e-002	1.645429e-002
7.387241964207928e-004	1.414045e-002	1.234977e-002
7.420724107065071e-004	9.963907e-003	8.211224e-003
7.454206249922214e-004	5.751437e-003	4.038653e-003
7.561628124922214e-004	-7.736680e-003	-9.310951e-003
7.603480803493643e-004	-1.300243e-002	-1.451815e-002
7.645333482065071e-004	-1.819689e-002	-1.965241e-002
7.687186160636500e-004	-2.332007e-002	-2.471373e-002
7.729038839207928e-004	-2.837195e-002	-2.970212e-002
7.770891517779357e-004	-3.335256e-002	-3.461757e-002
7.812744196350786e-004	-3.826187e-002	-3.946009e-002
7.854596874922214e-004	-4.309990e-002	-4.422967e-002
7.924351339207928e-004	-5.096053e-002	-5.197252e-002
7.994105803493643e-004	-5.830077e-002	-5.919546e-002
8.063860267779358e-004	-6.512061e-002	-6.589847e-002
8.133614732065072e-004	-7.142006e-002	-7.208155e-002
8.203369196350787e-004	-7.719911e-002	-7.774471e-002
8.273123660636501e-004	-8.245776e-002	-8.288795e-002
8.342878124922215e-004	-8.719601e-002	-8.751126e-002
8.479596874922215e-004	-9.426744e-002	-9.436303e-002
8.616315624922215e-004	-9.849899e-002	-9.840673e-002
8.753034374922215e-004	-9.989067e-002	-9.964238e-002
8.889753124922215e-004	-9.844246e-002	-9.806996e-002
9.026471874922215e-004	-9.415438e-002	-9.368948e-002
9.163190624922215e-004	-8.702642e-002	-8.650094e-002
9.299909374922216e-004	-7.705858e-002	-7.650434e-002
9.361293303493645e-004	-7.182680e-002	-7.127648e-002
9.422677232065073e-004	-6.625661e-002	-6.571772e-002
9.484061160636502e-004	-6.034803e-002	-5.982807e-002
9.545445089207930e-004	-5.410105e-002	-5.360753e-002
9.606829017779359e-004	-4.751567e-002	-4.705609e-002
9.668212946350788e-004	-4.059190e-002	-4.017377e-002
9.729596874922216e-004	-3.332972e-002	-3.296055e-002
9.827253124922210e-004	-2.153792e-002	-2.125940e-002
9.849574553493635e-004	-1.878518e-002	-1.852966e-002
9.871895982065061e-004	-1.602311e-002	-1.579132e-002
9.894217410636487e-004	-1.325172e-002	-1.304440e-002
9.916538839207915e-004	-1.047101e-002	-1.028888e-002
9.938860267779341e-004	-7.680965e-003	-7.524788e-003
9.961181696350767e-004	-4.881600e-003	-4.752103e-003
9.983503124922192e-004	-2.072910e-003	-1.970832e-003
9.993268749922191e-004	-8.458637e-004	-7.559662e-004
1.000000000000000e-003	-4.898587e-017	8.145431e-005
