time	V(9)	V(10)
0.000000000000000e+000	0.000000e+000	0.000000e+000
6.575811134472001e-005	7.402905e-007	-7.402905e-007
6.859603448962472e-005	-3.623883e-006	3.623883e-006
7.143395763452942e-005	-1.373822e-006	1.373822e-006
7.427188077943412e-005	7.490474e-006	-7.490474e-006
7.710980392433883e-005	2.296900e-005	-2.296900e-005
7.994772706924353e-005	4.506177e-005	-4.506177e-005
8.278565021414822e-005	7.376877e-005	-7.376877e-005
8.562357335905292e-005	1.090900e-004	-1.090900e-004
8.965713025712022e-005	2.011765e-004	-2.011765e-004
9.472248172778024e-005	3.799626e-004	-3.799626e-004
1.013235239381541e-004	7.396984e-004	-7.396984e-004
1.103272816571806e-004	1.499490e-003	-1.499490e-003
1.232764328902659e-004	3.210856e-003	-3.210856e-003
1.434816317075099e-004	7.514071e-003	-7.514071e-003
1.789422142273807e-004	2.035058e-002	-2.035058e-002
2.498633792671223e-004	6.609324e-002	-6.609324e-002
3.917057093466057e-004	2.134839e-001	-2.134839e-001
5.294803168496328e-004	4.271050e-001	-4.271050e-001
7.127679778127808e-004	8.204786e-001	-8.204786e-001
9.280917433888365e-004	1.419191e+000	-1.419191e+000
1.222894305891379e-003	2.440725e+000	-2.440725e+000
1.612681031972664e-003	4.053726e+000	-4.053726e+000
2.166345126541277e-003	6.634532e+000	-6.634532e+000
2.848868947801008e-003	9.968470e+000	-9.968470e+000
3.071808101594563e-003	9.982501e+000	-9.982501e+000
3.294747255388118e-003	9.993516e+000	-9.993516e+000
3.517686409181672e-003	1.000152e+001	-1.000152e+001
3.740625562975227e-003	1.000650e+001	-1.000650e+001
3.963564716768782e-003	1.000847e+001	-1.000847e+001
4.186503870562336e-003	1.000742e+001	-1.000742e+001
4.409443024355890e-003	1.000336e+001	-1.000336e+001
4.770058041204185e-003	1.000471e+001	-1.000471e+001
5.367616775942995e-003	1.000592e+001	-1.000592e+001
6.035344963689466e-003	1.000628e+001	-1.000628e+001
6.650232796512928e-003	1.000614e+001	-1.000614e+001
7.397496014941434e-003	1.000582e+001	-1.000582e+001
8.290612626137619e-003	1.000546e+001	-1.000546e+001
9.267175126137619e-003	1.000506e+001	-1.000506e+001
1.024373762613762e-002	1.000488e+001	-1.000488e+001
1.122030012613762e-002	1.000520e+001	-1.000520e+001
1.134237043863762e-002	1.000534e+001	-1.000534e+001
1.158651106363762e-002	1.000581e+001	-1.000581e+001
1.207479231363762e-002	1.000685e+001	-1.000685e+001
1.238184221089917e-002	1.000750e+001	-1.000750e+001
1.270605839028159e-002	1.000809e+001	-1.000809e+001
1.308539851936465e-002	1.000851e+001	-1.000851e+001
1.370023682241316e-002	1.000867e+001	-1.000867e+001
1.446655894730677e-002	1.000844e+001	-1.000844e+001
1.533533550839550e-002	1.000804e+001	-1.000804e+001
1.598354724301964e-002	1.000774e+001	-1.000774e+001
1.654099910145901e-002	1.000749e+001	-1.000749e+001
1.709312302377869e-002	1.000724e+001	-1.000724e+001
1.778629940710622e-002	1.000694e+001	-1.000694e+001
1.876286190710622e-002	1.000668e+001	-1.000668e+001
1.973942440710622e-002	1.000680e+001	-1.000680e+001
1.985417518307787e-002	1.000690e+001	-1.000690e+001
2.008367673502120e-002	1.000722e+001	-1.000722e+001
2.054267983890784e-002	1.000795e+001	-1.000795e+001
2.082301139331138e-002	1.000839e+001	-1.000839e+001
2.107949684313293e-002	1.000873e+001	-1.000873e+001
2.148394402895011e-002	1.000903e+001	-1.000903e+001
2.213864831816479e-002	1.000907e+001	-1.000907e+001
2.300314862857381e-002	1.000875e+001	-1.000875e+001
2.391865773542412e-002	1.000832e+001	-1.000832e+001
2.489522023542412e-002	1.000787e+001	-1.000787e+001
2.587178273542412e-002	1.000743e+001	-1.000743e+001
2.684834523542412e-002	1.000706e+001	-1.000706e+001
2.784016652448662e-002	1.000683e+001	-1.000683e+001
2.805378957136162e-002	1.000695e+001	-1.000695e+001
2.829793019636162e-002	1.000722e+001	-1.000722e+001
2.878621144636162e-002	1.000792e+001	-1.000792e+001
2.910390864593413e-002	1.000840e+001	-1.000840e+001
2.939333699467896e-002	1.000878e+001	-1.000878e+001
2.978558489495230e-002	1.000907e+001	-1.000907e+001
3.042094377466151e-002	1.000912e+001	-1.000912e+001
3.127479884358775e-002	1.000881e+001	-1.000881e+001
3.203242166602204e-002	1.000845e+001	-1.000845e+001
3.266140393365390e-002	1.000815e+001	-1.000815e+001
3.323334197086683e-002	1.000789e+001	-1.000789e+001
3.380170026250093e-002	1.000763e+001	-1.000763e+001
3.455952570561478e-002	1.000729e+001	-1.000729e+001
3.553608820561478e-002	1.000700e+001	-1.000700e+001
3.639223168816796e-002	1.000704e+001	-1.000704e+001
3.650797857676599e-002	1.000712e+001	-1.000712e+001
3.673947235396203e-002	1.000741e+001	-1.000741e+001
3.720245990835411e-002	1.000809e+001	-1.000809e+001
3.747744566609204e-002	1.000850e+001	-1.000850e+001
3.774161680127711e-002	1.000883e+001	-1.000883e+001
3.814321927301509e-002	1.000911e+001	-1.000911e+001
3.879341682569902e-002	1.000914e+001	-1.000914e+001
3.966811478718457e-002	1.000881e+001	-1.000881e+001
4.058901878457926e-002	1.000838e+001	-1.000838e+001
4.156558128457926e-002	1.000793e+001	-1.000793e+001
4.254214378457926e-002	1.000748e+001	-1.000748e+001
4.351870628457926e-002	1.000711e+001	-1.000711e+001
4.451052757364176e-002	1.000688e+001	-1.000688e+001
4.472415062051676e-002	1.000699e+001	-1.000699e+001
4.496829124551676e-002	1.000726e+001	-1.000726e+001
4.545657249551676e-002	1.000795e+001	-1.000795e+001
4.574312939280294e-002	1.000838e+001	-1.000838e+001
4.604979527717340e-002	1.000879e+001	-1.000879e+001
4.643565142710200e-002	1.000908e+001	-1.000908e+001
4.706085528540216e-002	1.000913e+001	-1.000913e+001
4.790671891794911e-002	1.000882e+001	-1.000882e+001
4.867298255384902e-002	1.000846e+001	-1.000846e+001
4.930499496554492e-002	1.000816e+001	-1.000816e+001
4.987921319412397e-002	1.000790e+001	-1.000790e+001
5.044987886367421e-002	1.000764e+001	-1.000764e+001
5.117356005333672e-002	1.000732e+001	-1.000732e+001
5.215012255333672e-002	1.000705e+001	-1.000705e+001
5.312668505333672e-002	1.000714e+001	-1.000714e+001
5.323753848262542e-002	1.000723e+001	-1.000723e+001
5.345924534120282e-002	1.000752e+001	-1.000752e+001
5.390265905835762e-002	1.000817e+001	-1.000817e+001
5.420366637351846e-002	1.000861e+001	-1.000861e+001
5.447691322112058e-002	1.000892e+001	-1.000892e+001
5.492140274568019e-002	1.000917e+001	-1.000917e+001
5.563924478923761e-002	1.000913e+001	-1.000913e+001
5.661580728923761e-002	1.000874e+001	-1.000874e+001
5.755486954213542e-002	1.000830e+001	-1.000830e+001
5.853143204213542e-002	1.000785e+001	-1.000785e+001
5.950799454213542e-002	1.000741e+001	-1.000741e+001
6.048455704213542e-002	1.000714e+001	-1.000714e+001
6.146111954213542e-002	1.000722e+001	-1.000722e+001
6.157189304225538e-002	1.000730e+001	-1.000730e+001
6.179344004249529e-002	1.000759e+001	-1.000759e+001
6.223653404297512e-002	1.000823e+001	-1.000823e+001
6.253796150031812e-002	1.000866e+001	-1.000866e+001
6.281181260024919e-002	1.000896e+001	-1.000896e+001
6.325727934387959e-002	1.000920e+001	-1.000920e+001
6.397665490425106e-002	1.000916e+001	-1.000916e+001
6.484184195772745e-002	1.000882e+001	-1.000882e+001
6.552375544297681e-002	1.000850e+001	-1.000850e+001
6.613662720819322e-002	1.000821e+001	-1.000821e+001
6.674620772695578e-002	1.000793e+001	-1.000793e+001
6.730469561733374e-002	1.000768e+001	-1.000768e+001
6.828125811733374e-002	1.000724e+001	-1.000724e+001
6.925782061733374e-002	1.000696e+001	-1.000696e+001
6.988096239296267e-002	1.000707e+001	-1.000707e+001
6.998541474511213e-002	1.000717e+001	-1.000717e+001
7.019431944941108e-002	1.000749e+001	-1.000749e+001
7.061212885800898e-002	1.000813e+001	-1.000813e+001
7.100095469345295e-002	1.000868e+001	-1.000868e+001
7.135620422046175e-002	1.000900e+001	-1.000900e+001
7.193261029459853e-002	1.000909e+001	-1.000909e+001
7.285370520303082e-002	1.000878e+001	-1.000878e+001
7.369253504283961e-002	1.000839e+001	-1.000839e+001
7.466909754283961e-002	1.000794e+001	-1.000794e+001
7.564566004283961e-002	1.000749e+001	-1.000749e+001
7.662222254283961e-002	1.000706e+001	-1.000706e+001
7.759878504283961e-002	1.000679e+001	-1.000679e+001
7.821725223642137e-002	1.000694e+001	-1.000694e+001
7.832148714557952e-002	1.000704e+001	-1.000704e+001
7.852995696389582e-002	1.000737e+001	-1.000737e+001
7.894689660052844e-002	1.000805e+001	-1.000805e+001
7.933482428184278e-002	1.000862e+001	-1.000862e+001
7.969041007317931e-002	1.000895e+001	-1.000895e+001
8.026735373353748e-002	1.000905e+001	-1.000905e+001
8.118925954392479e-002	1.000875e+001	-1.000875e+001
8.202547575582946e-002	1.000836e+001	-1.000836e+001
8.265096847750042e-002	1.000807e+001	-1.000807e+001
8.321112230798448e-002	1.000781e+001	-1.000781e+001
8.376773154568225e-002	1.000756e+001	-1.000756e+001
8.448003219873085e-002	1.000724e+001	-1.000724e+001
8.545659469873085e-002	1.000697e+001	-1.000697e+001
8.643315719873085e-002	1.000706e+001	-1.000706e+001
8.654595610924243e-002	1.000714e+001	-1.000714e+001
8.677155393026560e-002	1.000744e+001	-1.000744e+001
8.722274957231195e-002	1.000812e+001	-1.000812e+001
8.748122110997039e-002	1.000850e+001	-1.000850e+001
8.774302013600258e-002	1.000883e+001	-1.000883e+001
8.814550067236017e-002	1.000911e+001	-1.000911e+001
8.879708958485226e-002	1.000914e+001	-1.000914e+001
8.967271873962149e-002	1.000881e+001	-1.000881e+001
9.059410172452131e-002	1.000838e+001	-1.000838e+001
9.157066422452131e-002	1.000792e+001	-1.000792e+001
9.254722672452131e-002	1.000748e+001	-1.000748e+001
9.352378922452131e-002	1.000711e+001	-1.000711e+001
9.451561051358381e-002	1.000688e+001	-1.000688e+001
9.472923356045881e-002	1.000700e+001	-1.000700e+001
9.497337418545881e-002	1.000727e+001	-1.000727e+001
9.546165543545881e-002	1.000796e+001	-1.000796e+001
9.574426176623249e-002	1.000839e+001	-1.000839e+001
9.605021656560119e-002	1.000879e+001	-1.000879e+001
9.643633653626732e-002	1.000908e+001	-1.000908e+001
9.706195979896960e-002	1.000913e+001	-1.000913e+001
9.790848549084431e-002	1.000882e+001	-1.000882e+001
9.866725553637146e-002	1.000846e+001	-1.000846e+001
9.929907157050080e-002	1.000817e+001	-1.000817e+001
9.987477206322765e-002	1.000790e+001	-1.000790e+001
1.004476384811140e-001	1.000764e+001	-1.000764e+001
1.011662121488529e-001	1.000732e+001	-1.000732e+001
1.021427746488529e-001	1.000705e+001	-1.000705e+001
1.031193371488529e-001	1.000714e+001	-1.000714e+001
1.032307235859435e-001	1.000722e+001	-1.000722e+001
1.034534964601248e-001	1.000752e+001	-1.000752e+001
1.038990422084874e-001	1.000817e+001	-1.000817e+001
1.041972438840162e-001	1.000860e+001	-1.000860e+001
1.044664556908120e-001	1.000891e+001	-1.000891e+001
1.049044179518523e-001	1.000917e+001	-1.000917e+001
1.056120076865271e-001	1.000914e+001	-1.000914e+001
1.065885701865271e-001	1.000875e+001	-1.000875e+001
1.075195565716901e-001	1.000832e+001	-1.000832e+001
1.084961190716901e-001	1.000786e+001	-1.000786e+001
1.094726815716901e-001	1.000742e+001	-1.000742e+001
1.104492440716901e-001	1.000714e+001	-1.000714e+001
1.114258065716901e-001	1.000719e+001	-1.000719e+001
1.115391364188014e-001	1.000727e+001	-1.000727e+001
1.117657961130240e-001	1.000755e+001	-1.000755e+001
1.122191155014692e-001	1.000820e+001	-1.000820e+001
1.124735318708976e-001	1.000857e+001	-1.000857e+001
1.127401620109183e-001	1.000889e+001	-1.000889e+001
1.131408541775263e-001	1.000916e+001	-1.000916e+001
1.137896090140238e-001	1.000918e+001	-1.000918e+001
1.147661715140238e-001	1.000881e+001	-1.000881e+001
1.154983316637035e-001	1.000846e+001	-1.000846e+001
1.161025490674755e-001	1.000818e+001	-1.000818e+001
1.167033588036976e-001	1.000790e+001	-1.000790e+001
1.172583628567861e-001	1.000765e+001	-1.000765e+001
1.182349253567861e-001	1.000721e+001	-1.000721e+001
1.192114878567861e-001	1.000693e+001	-1.000693e+001
1.198629440156710e-001	1.000705e+001	-1.000705e+001
1.199687195928543e-001	1.000715e+001	-1.000715e+001
1.201802707472210e-001	1.000746e+001	-1.000746e+001
1.206033730559542e-001	1.000812e+001	-1.000812e+001
1.209565693352126e-001	1.000863e+001	-1.000863e+001
1.212839729468193e-001	1.000896e+001	-1.000896e+001
1.218157581249974e-001	1.000912e+001	-1.000912e+001
1.226690182913129e-001	1.000892e+001	-1.000892e+001
1.236204737474267e-001	1.000851e+001	-1.000851e+001
1.245970362474267e-001	1.000805e+001	-1.000805e+001
1.255735987474267e-001	1.000761e+001	-1.000761e+001
1.265501612474267e-001	1.000717e+001	-1.000717e+001
1.275267237474267e-001	1.000690e+001	-1.000690e+001
1.281892066347839e-001	1.000702e+001	-1.000702e+001
1.282955005316204e-001	1.000712e+001	-1.000712e+001
1.285080883252933e-001	1.000744e+001	-1.000744e+001
1.289332639126391e-001	1.000810e+001	-1.000810e+001
1.292856526151253e-001	1.000862e+001	-1.000862e+001
1.296103886225995e-001	1.000895e+001	-1.000895e+001
1.301378889277083e-001	1.000912e+001	-1.000912e+001
1.309845822380800e-001	1.000894e+001	-1.000894e+001
1.317829648181539e-001	1.000859e+001	-1.000859e+001
1.324290324498816e-001	1.000829e+001	-1.000829e+001
1.330258806137198e-001	1.000801e+001	-1.000801e+001
1.335256339475476e-001	1.000778e+001	-1.000778e+001
1.340166956619105e-001	1.000756e+001	-1.000756e+001
1.349932581619105e-001	1.000713e+001	-1.000713e+001
1.359698206619105e-001	1.000686e+001	-1.000686e+001
1.365651485411596e-001	1.000706e+001	-1.000706e+001
1.368839620581464e-001	1.000743e+001	-1.000743e+001
1.371449952590372e-001	1.000785e+001	-1.000785e+001
1.374146442031083e-001	1.000829e+001	-1.000829e+001
1.377182655771911e-001	1.000870e+001	-1.000870e+001
1.381052511806589e-001	1.000901e+001	-1.000901e+001
1.387322504154295e-001	1.000907e+001	-1.000907e+001
1.395748011716677e-001	1.000877e+001	-1.000877e+001
1.404802418346669e-001	1.000834e+001	-1.000834e+001
1.414568043346669e-001	1.000789e+001	-1.000789e+001
1.424333668346669e-001	1.000745e+001	-1.000745e+001
1.434099293346669e-001	1.000705e+001	-1.000705e+001
1.443864918346669e-001	1.000673e+001	-1.000673e+001
1.445085621471669e-001	1.000674e+001	-1.000674e+001
1.447527027721669e-001	1.000693e+001	-1.000693e+001
1.452409840221669e-001	1.000753e+001	-1.000753e+001
1.455077907074241e-001	1.000794e+001	-1.000794e+001
1.457610313670275e-001	1.000834e+001	-1.000834e+001
1.460564544072321e-001	1.000874e+001	-1.000874e+001
1.464464802558888e-001	1.000904e+001	-1.000904e+001
1.470783102690211e-001	1.000909e+001	-1.000909e+001
1.479233694457529e-001	1.000879e+001	-1.000879e+001
1.486701982785205e-001	1.000843e+001	-1.000843e+001
1.493012663669079e-001	1.000814e+001	-1.000814e+001
1.499315513699066e-001	1.000785e+001	-1.000785e+001
1.505083493442391e-001	1.000759e+001	-1.000759e+001
1.513140543787483e-001	1.000723e+001	-1.000723e+001
1.522906168787483e-001	1.000694e+001	-1.000694e+001
1.530950123281576e-001	1.000701e+001	-1.000701e+001
1.532081588475842e-001	1.000710e+001	-1.000710e+001
1.534344518864373e-001	1.000741e+001	-1.000741e+001
1.538870379641434e-001	1.000809e+001	-1.000809e+001
1.541428556671747e-001	1.000848e+001	-1.000848e+001
1.544078163584710e-001	1.000881e+001	-1.000881e+001
1.548091265510257e-001	1.000909e+001	-1.000909e+001
1.554588609087022e-001	1.000912e+001	-1.000912e+001
1.563301024703734e-001	1.000880e+001	-1.000880e+001
1.572492172271958e-001	1.000837e+001	-1.000837e+001
1.582257797271958e-001	1.000792e+001	-1.000792e+001
1.592023422271958e-001	1.000747e+001	-1.000747e+001
1.601789047271958e-001	1.000710e+001	-1.000710e+001
1.611707260162583e-001	1.000686e+001	-1.000686e+001
1.613843490631333e-001	1.000697e+001	-1.000697e+001
1.616284896881333e-001	1.000724e+001	-1.000724e+001
1.621167709381333e-001	1.000793e+001	-1.000793e+001
1.624338095626405e-001	1.000841e+001	-1.000841e+001
1.627253939251722e-001	1.000879e+001	-1.000879e+001
1.631168427477917e-001	1.000908e+001	-1.000908e+001
1.637509327835266e-001	1.000912e+001	-1.000912e+001
1.646051212773010e-001	1.000881e+001	-1.000881e+001
1.653454952675287e-001	1.000846e+001	-1.000846e+001
1.659746077537841e-001	1.000817e+001	-1.000817e+001
1.666026990375901e-001	1.000788e+001	-1.000788e+001
1.671795001124388e-001	1.000762e+001	-1.000762e+001
1.679948364039315e-001	1.000725e+001	-1.000725e+001
1.689713989039315e-001	1.000697e+001	-1.000697e+001
1.697674226453316e-001	1.000704e+001	-1.000704e+001
1.698801541843748e-001	1.000713e+001	-1.000713e+001
1.701056172624613e-001	1.000743e+001	-1.000743e+001
1.705565434186342e-001	1.000811e+001	-1.000811e+001
1.708155288164680e-001	1.000849e+001	-1.000849e+001
1.710767156403448e-001	1.000882e+001	-1.000882e+001
1.714794227796891e-001	1.000910e+001	-1.000910e+001
1.721313707203143e-001	1.000913e+001	-1.000913e+001
1.730059789560638e-001	1.000881e+001	-1.000881e+001
1.739268136397221e-001	1.000837e+001	-1.000837e+001
1.749033761397221e-001	1.000792e+001	-1.000792e+001
1.758799386397221e-001	1.000748e+001	-1.000748e+001
1.768565011397221e-001	1.000711e+001	-1.000711e+001
1.778483224287846e-001	1.000688e+001	-1.000688e+001
1.780619454756596e-001	1.000700e+001	-1.000700e+001
1.783060861006596e-001	1.000727e+001	-1.000727e+001
1.787943673506596e-001	1.000796e+001	-1.000796e+001
1.790774566513918e-001	1.000838e+001	-1.000838e+001
1.793834983911991e-001	1.000879e+001	-1.000879e+001
1.797695861066921e-001	1.000908e+001	-1.000908e+001
1.803951580934610e-001	1.000913e+001	-1.000913e+001
1.812413914783022e-001	1.000882e+001	-1.000882e+001
1.819895664066950e-001	1.000847e+001	-1.000847e+001
1.826214009328896e-001	1.000817e+001	-1.000817e+001
1.832525785819477e-001	1.000788e+001	-1.000788e+001
1.838311024157188e-001	1.000762e+001	-1.000762e+001
1.846166529538472e-001	1.000727e+001	-1.000727e+001
1.855932154538472e-001	1.000698e+001	-1.000698e+001
1.864157848196332e-001	1.000704e+001	-1.000704e+001
1.865298375227229e-001	1.000712e+001	-1.000712e+001
1.867579429289023e-001	1.000742e+001	-1.000742e+001
1.872141537412611e-001	1.000810e+001	-1.000810e+001
1.874652743696668e-001	1.000848e+001	-1.000848e+001
1.877370925034815e-001	1.000882e+001	-1.000882e+001
1.881358638405978e-001	1.000910e+001	-1.000910e+001
1.887815735161088e-001	1.000913e+001	-1.000913e+001
1.896507187244346e-001	1.000881e+001	-1.000881e+001
1.905688118426178e-001	1.000838e+001	-1.000838e+001
1.915453743426178e-001	1.000793e+001	-1.000793e+001
1.925219368426178e-001	1.000748e+001	-1.000748e+001
1.934984993426178e-001	1.000711e+001	-1.000711e+001
1.944903206316803e-001	1.000685e+001	-1.000685e+001
1.947039436785553e-001	1.000696e+001	-1.000696e+001
1.949480843035553e-001	1.000722e+001	-1.000722e+001
1.954363655535553e-001	1.000791e+001	-1.000791e+001
1.957501396797957e-001	1.000838e+001	-1.000838e+001
1.960524032247553e-001	1.000878e+001	-1.000878e+001
1.964398924775830e-001	1.000907e+001	-1.000907e+001
1.970676921835454e-001	1.000912e+001	-1.000912e+001
1.979148305876688e-001	1.000881e+001	-1.000881e+001
1.986594036732494e-001	1.000846e+001	-1.000846e+001
1.992907236610504e-001	1.000817e+001	-1.000817e+001
1.999213207642373e-001	1.000788e+001	-1.000788e+001
2.005000377928041e-001	1.000761e+001	-1.000761e+001
2.012897615463800e-001	1.000726e+001	-1.000726e+001
2.022663240463800e-001	1.000697e+001	-1.000697e+001
2.030850904921570e-001	1.000703e+001	-1.000703e+001
2.031989529613952e-001	1.000712e+001	-1.000712e+001
2.034266778998717e-001	1.000742e+001	-1.000742e+001
2.038821277768246e-001	1.000810e+001	-1.000810e+001
2.041324661156483e-001	1.000847e+001	-1.000847e+001
2.044039543602444e-001	1.000882e+001	-1.000882e+001
2.048028478489405e-001	1.000910e+001	-1.000910e+001
2.054487512118052e-001	1.000913e+001	-1.000913e+001
2.063177840550997e-001	1.000881e+001	-1.000881e+001
2.072358151085487e-001	1.000838e+001	-1.000838e+001
2.082123776085487e-001	1.000793e+001	-1.000793e+001
2.091889401085487e-001	1.000748e+001	-1.000748e+001
2.101655026085487e-001	1.000711e+001	-1.000711e+001
2.111573238976112e-001	1.000685e+001	-1.000685e+001
2.113709469444862e-001	1.000696e+001	-1.000696e+001
2.116150875694862e-001	1.000722e+001	-1.000722e+001
2.121033688194862e-001	1.000791e+001	-1.000791e+001
2.124172229785013e-001	1.000838e+001	-1.000838e+001
2.127192248739256e-001	1.000878e+001	-1.000878e+001
2.131068111729929e-001	1.000907e+001	-1.000907e+001
2.137347651095102e-001	1.000912e+001	-1.000912e+001
2.145820392452563e-001	1.000881e+001	-1.000881e+001
