time	V(7)	V(8)
0.000000000000000e+000	0.000000e+000	0.000000e+000
1.797695920112127e-006	-3.685833e-010	3.685833e-010
3.595391840224254e-006	-2.968447e-010	2.968447e-010
5.393087760336380e-006	2.152157e-010	-2.152157e-010
7.190783680448507e-006	1.167598e-009	-1.167598e-009
8.988479600560633e-006	2.560302e-009	-2.560302e-009
1.078617552067276e-005	4.393328e-009	-4.393328e-009
1.258387144078488e-005	6.666676e-009	-6.666676e-009
2.516675488157082e-005	2.405762e-005	-2.405762e-005
5.033252176314268e-005	3.843821e-002	-3.843821e-002
1.006640555262864e-004	2.866699e-001	-2.866699e-001
2.013271230525738e-004	1.036172e+000	-1.036172e+000
4.026532581051487e-004	2.662925e+000	-2.662925e+000
8.053055282102985e-004	5.827372e+000	-5.827372e+000
1.610610068420598e-003	1.154866e+001	-1.154866e+001
2.553076928979829e-003	1.702473e+001	-1.702473e+001
3.199496648366046e-003	1.975668e+001	-1.975668e+001
3.526660960897959e-003	2.065612e+001	-2.065612e+001
3.781832945767730e-003	2.106385e+001	-2.106385e+001
4.098490506641092e-003	2.127823e+001	-2.127823e+001
4.391322135334842e-003	2.118970e+001	-2.118970e+001
4.782308640591505e-003	2.057960e+001	-2.057960e+001
5.415664476391173e-003	1.853902e+001	-1.853902e+001
6.392226976391173e-003	1.354900e+001	-1.354900e+001
7.368789476391173e-003	7.088487e+000	-7.088487e+000
8.345351976391174e-003	3.626532e+000	-3.626532e+000
9.321914476391174e-003	7.356681e+000	-7.356681e+000
9.443984788891174e-003	8.274497e+000	-8.274497e+000
9.688125413891174e-003	1.004755e+001	-1.004755e+001
1.017640666389117e-002	1.317748e+001	-1.317748e+001
1.115296916389117e-002	1.827196e+001	-1.827196e+001
1.163498528665232e-002	2.009412e+001	-2.009412e+001
1.193592885897274e-002	2.080317e+001	-2.080317e+001
1.220960318539949e-002	2.117103e+001	-2.117103e+001
1.249013397419001e-002	2.130626e+001	-2.130626e+001
1.274633296673817e-002	2.118692e+001	-2.118692e+001
1.315088616702539e-002	2.050272e+001	-2.050272e+001
1.380575835757456e-002	1.831562e+001	-1.831562e+001
1.478232085757456e-002	1.332040e+001	-1.332040e+001
1.550834520745679e-002	8.495398e+000	-8.495398e+000
1.611159284935482e-002	3.909193e+000	-3.909193e+000
1.611814087792896e-002	3.857007e+000	-3.857007e+000
1.613123693507722e-002	3.750951e+000	-3.750951e+000
1.615742904937376e-002	3.538494e+000	-3.538494e+000
1.620981327796684e-002	3.112591e+000	-3.112591e+000
1.631458173515299e-002	2.260314e+000	-2.260314e+000
1.652411864952529e-002	1.305800e+000	-1.305800e+000
1.694319247826990e-002	1.655916e+000	-1.655916e+000
1.694863863086372e-002	1.685225e+000	-1.685225e+000
1.695953093605138e-002	1.773838e+000	-1.773838e+000
1.698131554642669e-002	1.951612e+000	-1.951612e+000
1.702488476717731e-002	2.306978e+000	-2.306978e+000
1.711202320867855e-002	3.015851e+000	-3.015851e+000
1.728630009168102e-002	4.418119e+000	-4.418119e+000
1.763485385768597e-002	7.113493e+000	-7.113493e+000
1.833196138969587e-002	1.194545e+001	-1.194545e+001
1.928757266549238e-002	1.735523e+001	-1.735523e+001
1.989247211957164e-002	1.984552e+001	-1.984552e+001
2.021283452422415e-002	2.069432e+001	-2.069432e+001
2.047277835977253e-002	2.109952e+001	-2.109952e+001
2.074674036431587e-002	2.128107e+001	-2.128107e+001
2.105113866829874e-002	2.119191e+001	-2.119191e+001
2.143783606940413e-002	2.060453e+001	-2.060453e+001
2.206437721628691e-002	1.860939e+001	-1.860939e+001
2.304093971628691e-002	1.365591e+001	-1.365591e+001
2.401750221628691e-002	7.185709e+000	-7.185709e+000
2.499406471628691e-002	3.626582e+000	-3.626582e+000
2.597062721628691e-002	7.226610e+000	-7.226610e+000
2.609269752878691e-002	8.138302e+000	-8.138302e+000
2.633683815378691e-002	9.917814e+000	-9.917814e+000
2.682511940378691e-002	1.306441e+001	-1.306441e+001
2.780168190378691e-002	1.819292e+001	-1.819292e+001
2.829486356976566e-002	2.007302e+001	-2.007302e+001
2.859753396779911e-002	2.079420e+001	-2.079420e+001
2.886998095079816e-002	2.116657e+001	-2.116657e+001
2.914562997175310e-002	2.130519e+001	-2.130519e+001
2.940884757843742e-002	2.118839e+001	-2.118839e+001
2.981080301845416e-002	2.051864e+001	-2.051864e+001
3.046155990673015e-002	1.835992e+001	-1.835992e+001
3.143812240673015e-002	1.338746e+001	-1.338746e+001
3.216324134609544e-002	8.582451e+000	-8.582451e+000
3.276733249336404e-002	3.997642e+000	-3.997642e+000
3.277310562169480e-002	3.951683e+000	-3.951683e+000
3.280774439167934e-002	3.671117e+000	-3.671117e+000
3.285392941832539e-002	3.295984e+000	-3.295984e+000
3.294629947161750e-002	2.544071e+000	-2.544071e+000
3.313103957820172e-002	1.493225e+000	-1.493225e+000
3.350051979137017e-002	8.014334e-001	-8.014334e-001
3.351163868652921e-002	8.433185e-001	-8.433185e-001
3.353387647684727e-002	1.022983e+000	-1.022983e+000
3.357835205748341e-002	1.384278e+000	-1.384278e+000
3.363439059337335e-002	1.840776e+000	-1.840776e+000
3.374646766515322e-002	2.752843e+000	-2.752843e+000
3.397062180871296e-002	4.552007e+000	-4.552007e+000
3.441893009583245e-002	7.950703e+000	-7.950703e+000
3.531554667007142e-002	1.385028e+001	-1.385028e+001
3.625385422041411e-002	1.870596e+001	-1.870596e+001
3.667294695305578e-002	2.020463e+001	-2.020463e+001
3.696427291409364e-002	2.084759e+001	-2.084759e+001
3.724375512043632e-002	2.118846e+001	-2.118846e+001
3.755078313088803e-002	2.128624e+001	-2.128624e+001
3.783268916394058e-002	2.108463e+001	-2.108463e+001
3.829117632834970e-002	2.013390e+001	-2.013390e+001
3.903094905971847e-002	1.732473e+001	-1.732473e+001
4.000751155971847e-002	1.178839e+001	-1.178839e+001
4.098407405971847e-002	4.900060e+000	-4.900060e+000
4.110614437221847e-002	3.945884e+000	-3.945884e+000
4.141132015346847e-002	1.467169e+000	-1.467169e+000
4.153339046596847e-002	7.808546e-001	-7.808546e-001
4.177753109096847e-002	5.230474e-001	-5.230474e-001
4.183856624721847e-002	8.002554e-001	-8.002554e-001
4.196063655971847e-002	1.788139e+000	-1.788139e+000
4.220477718471847e-002	3.756853e+000	-3.756853e+000
4.269305843471847e-002	7.483133e+000	-7.483133e+000
4.366962093471847e-002	1.392088e+001	-1.392088e+001
4.464618343471847e-002	1.893703e+001	-1.893703e+001
4.503168385686611e-002	2.028177e+001	-2.028177e+001
4.531660993642418e-002	2.088375e+001	-2.088375e+001
4.559998949035089e-002	2.119958e+001	-2.119958e+001
4.595239201438277e-002	2.125091e+001	-2.125091e+001
4.627717367509506e-002	2.092295e+001	-2.092295e+001
4.680474732564270e-002	1.958011e+001	-1.958011e+001
4.765155311757714e-002	1.597548e+001	-1.597548e+001
4.844419712932308e-002	1.129185e+001	-1.129185e+001
4.909014108592343e-002	6.637408e+000	-6.637408e+000
4.968886931556286e-002	1.924862e+000	-1.924862e+000
4.969056937372362e-002	1.911099e+000	-1.911099e+000
4.971437018797415e-002	1.716962e+000	-1.716962e+000
4.974157111854619e-002	1.495394e+000	-1.495394e+000
4.979597297969027e-002	1.056825e+000	-1.056825e+000
4.990477670197843e-002	5.133159e-001	-5.133159e-001
5.012238414655475e-002	4.098935e-001	-4.098935e-001
5.012591578553444e-002	4.254382e-001	-4.254382e-001
5.014710561941253e-002	5.930760e-001	-5.930760e-001
5.017535873124999e-002	8.199518e-001	-8.199518e-001
5.023186495492493e-002	1.277886e+000	-1.277886e+000
5.034487740227479e-002	2.197399e+000	-2.197399e+000
5.057090229697451e-002	4.018902e+000	-4.018902e+000
5.102295208637395e-002	7.477519e+000	-7.477519e+000
5.191895453151844e-002	1.347651e+001	-1.347651e+001
5.284941423795456e-002	1.840955e+001	-1.840955e+001
5.331288798844067e-002	2.012406e+001	-2.012406e+001
5.361097804218746e-002	2.081329e+001	-2.081329e+001
5.388641860325637e-002	2.118051e+001	-2.118051e+001
5.414154516883768e-002	2.130399e+001	-2.130399e+001
5.440732923549003e-002	2.118431e+001	-2.118431e+001
5.480833462103524e-002	2.051981e+001	-2.051981e+001
5.545758589996794e-002	1.837143e+001	-1.837143e+001
5.643414839996794e-002	1.329688e+001	-1.329688e+001
5.741071089996794e-002	6.790445e+000	-6.790445e+000
5.753278121246794e-002	5.865328e+000	-5.865328e+000
5.777692183746794e-002	3.918512e+000	-3.918512e+000
5.826520308746794e-002	2.436402e+000	-2.436402e+000
5.924176558746794e-002	6.774619e+000	-6.774619e+000
5.936383589996794e-002	7.663572e+000	-7.663572e+000
5.960797652496794e-002	9.464662e+000	-9.464662e+000
6.009625777496794e-002	1.266793e+001	-1.266793e+001
6.107282027496794e-002	1.791287e+001	-1.791287e+001
6.160459158856733e-002	1.999853e+001	-1.999853e+001
6.191328357133338e-002	2.076245e+001	-2.076245e+001
6.218146034841933e-002	2.115005e+001	-2.115005e+001
6.244014018482462e-002	2.129883e+001	-2.129883e+001
6.272774802377540e-002	2.119331e+001	-2.119331e+001
6.312067057773274e-002	2.057284e+001	-2.057284e+001
6.375710057175804e-002	1.851160e+001	-1.851160e+001
6.473366307175804e-002	1.361676e+001	-1.361676e+001
6.546020983159216e-002	8.849190e+000	-8.849190e+000
6.606708358484344e-002	4.379561e+000	-4.379561e+000
6.667084535638115e-002	2.067098e+000	-2.067098e+000
6.723412083147780e-002	4.010039e+000	-4.010039e+000
6.723841465105566e-002	4.042687e+000	-4.042687e+000
6.726417756852286e-002	4.250622e+000	-4.250622e+000
6.729852812514579e-002	4.527018e+000	-4.527018e+000
6.736722923839164e-002	5.076589e+000	-5.076589e+000
6.750463146488334e-002	6.160089e+000	-6.160089e+000
6.777943591786673e-002	8.244528e+000	-8.244528e+000
6.832904482383351e-002	1.198031e+001	-1.198031e+001
6.930560732383351e-002	1.743549e+001	-1.743549e+001
6.989942703480538e-002	1.986867e+001	-1.986867e+001
7.021799712019035e-002	2.070426e+001	-2.070426e+001
7.047920162403613e-002	2.110744e+001	-2.110744e+001
7.074817216417642e-002	2.128286e+001	-2.128286e+001
7.105167131320871e-002	2.119177e+001	-2.119177e+001
7.143870225465475e-002	2.060263e+001	-2.060263e+001
7.206577355024058e-002	1.860397e+001	-1.860397e+001
7.304233605024058e-002	1.364764e+001	-1.364764e+001
7.401889855024058e-002	7.178187e+000	-7.178187e+000
7.499546105024058e-002	3.626585e+000	-3.626585e+000
7.597202355024058e-002	7.236701e+000	-7.236701e+000
7.609409386274058e-002	8.148875e+000	-8.148875e+000
7.633823448774058e-002	9.927901e+000	-9.927901e+000
7.682651573774058e-002	1.307321e+001	-1.307321e+001
7.780307823774058e-002	1.819907e+001	-1.819907e+001
7.829539191687375e-002	2.007465e+001	-2.007465e+001
7.859792783704334e-002	2.079487e+001	-2.079487e+001
7.887047035625036e-002	2.116690e+001	-2.116690e+001
7.914649930351710e-002	2.130526e+001	-2.130526e+001
7.940917070942181e-002	2.118826e+001	-2.118826e+001
7.981132833188842e-002	2.051739e+001	-2.051739e+001
8.046240559255186e-002	1.835646e+001	-1.835646e+001
8.143896809255186e-002	1.338747e+001	-1.338747e+001
8.215272064633535e-002	8.662800e+000	-8.662800e+000
8.275690518864398e-002	4.082274e+000	-4.082274e+000
8.275958341469436e-002	4.060983e+000	-4.060983e+000
8.276493986679513e-002	4.017704e+000	-4.017704e+000
8.277565277099667e-002	3.931055e+000	-3.931055e+000
8.279707857939975e-002	3.757534e+000	-3.757534e+000
8.283993019620591e-002	3.409714e+000	-3.409714e+000
8.292563342981821e-002	2.712222e+000	-2.712222e+000
8.309703989704281e-002	1.607659e+000	-1.607659e+000
8.343985283149202e-002	3.309354e-001	-3.309354e-001
8.345056573569357e-002	3.580507e-001	-3.580507e-001
8.347199154409664e-002	5.265666e-001	-5.265666e-001
8.351484316090280e-002	8.703152e-001	-8.703152e-001
8.360054639451510e-002	1.565678e+000	-1.565678e+000
8.377195286173970e-002	2.956487e+000	-2.956487e+000
8.411476579618891e-002	5.664372e+000	-5.664372e+000
8.480039166508735e-002	1.063044e+001	-1.063044e+001
8.570819365692430e-002	1.610802e+001	-1.610802e+001
8.646240041643202e-002	1.950887e+001	-1.950887e+001
8.680795012803831e-002	2.054492e+001	-2.054492e+001
8.706557679522270e-002	2.100325e+001	-2.100325e+001
8.736635600406500e-002	2.125162e+001	-2.125162e+001
8.770029148231945e-002	2.119728e+001	-2.119728e+001
8.807601878085404e-002	2.066644e+001	-2.066644e+001
8.868510428778352e-002	1.878805e+001	-1.878805e+001
8.965520136256959e-002	1.396797e+001	-1.396797e+001
9.063176386256959e-002	7.467789e+000	-7.467789e+000
9.160832636256959e-002	3.626532e+000	-3.626532e+000
9.258488886256959e-002	6.845213e+000	-6.845213e+000
9.270695917506959e-002	7.738607e+000	-7.738607e+000
9.295109980006959e-002	9.536354e+000	-9.536354e+000
9.343938105006959e-002	1.273081e+001	-1.273081e+001
9.441594355006959e-002	1.795758e+001	-1.795758e+001
9.494165030135432e-002	2.001039e+001	-2.001039e+001
9.524939020317171e-002	2.076750e+001	-2.076750e+001
9.551824114687862e-002	2.115275e+001	-2.115275e+001
9.577959836168236e-002	2.130009e+001	-2.130009e+001
9.606335873096364e-002	2.119254e+001	-2.119254e+001
9.645770687731597e-002	2.056439e+001	-2.056439e+001
9.709639973455528e-002	1.848789e+001	-1.848789e+001
9.807296223455528e-002	1.358457e+001	-1.358457e+001
9.879106745599960e-002	8.869510e+000	-8.869510e+000
9.939759653331665e-002	4.395669e+000	-4.395669e+000
1.000010919538873e-001	2.070438e+000	-2.070438e+000
1.005663545355793e-001	4.000537e+000	-4.000537e+000
1.005694071349254e-001	4.023680e+000	-4.023680e+000
1.005877227310019e-001	4.171698e+000	-4.171698e+000
1.006121435257706e-001	4.368495e+000	-4.368495e+000
1.006609851153079e-001	4.760563e+000	-4.760563e+000
1.007586682943827e-001	5.537580e+000	-5.537580e+000
1.009540346525322e-001	7.055622e+000	-7.055622e+000
1.013447673688311e-001	9.893221e+000	-9.893221e+000
1.021262328014290e-001	1.472450e+001	-1.472450e+001
1.030850452545138e-001	1.931415e+001	-1.931415e+001
1.034422224349522e-001	2.046971e+001	-2.046971e+001
1.037078673291833e-001	2.096862e+001	-2.096862e+001
1.040034087536951e-001	2.123498e+001	-2.123498e+001
1.043559219769616e-001	2.120043e+001	-2.120043e+001
1.047247337341620e-001	2.070407e+001	-2.070407e+001
1.053227966090679e-001	1.890251e+001	-1.890251e+001
1.062764328445631e-001	1.424037e+001	-1.424037e+001
1.072529953445631e-001	7.771986e+000	-7.771986e+000
1.082295578445631e-001	3.749546e+000	-3.749546e+000
1.092061203445631e-001	6.526060e+000	-6.526060e+000
1.093281906570631e-001	7.389482e+000	-7.389482e+000
1.095723312820631e-001	9.202448e+000	-9.202448e+000
1.100606125320631e-001	1.243736e+001	-1.243736e+001
1.110371750320631e-001	1.774804e+001	-1.774804e+001
1.115909944152240e-001	1.995480e+001	-1.995480e+001
1.119031670317593e-001	2.074376e+001	-2.074376e+001
1.121688823973069e-001	2.113936e+001	-2.113936e+001
1.124199722592620e-001	2.129362e+001	-2.129362e+001
1.127202475440540e-001	2.119573e+001	-2.119573e+001
1.131084742022631e-001	2.060028e+001	-2.060028e+001
1.137374457542709e-001	1.858899e+001	-1.858899e+001
1.147140082542709e-001	1.373802e+001	-1.373802e+001
1.154345919792097e-001	9.037882e+000	-9.037882e+000
1.160429215977552e-001	4.525004e+000	-4.525004e+000
1.166484409878006e-001	2.078995e+000	-2.078995e+000
1.172170979880138e-001	3.871764e+000	-3.871764e+000
1.172193803175694e-001	3.888749e+000	-3.888749e+000
1.172330742949026e-001	3.999544e+000	-3.999544e+000
1.172513329313469e-001	4.146980e+000	-4.146980e+000
1.172878502042355e-001	4.441064e+000	-4.441064e+000
1.173608847500127e-001	5.025642e+000	-5.025642e+000
1.175069538415670e-001	6.177127e+000	-6.177127e+000
1.177990920246758e-001	8.385466e+000	-8.385466e+000
1.183833683908933e-001	1.232866e+001	-1.232866e+001
1.193369770324912e-001	1.759324e+001	-1.759324e+001
1.199114869369439e-001	1.990843e+001	-1.990843e+001
1.202269548030812e-001	2.072132e+001	-2.072132e+001
1.204903445326716e-001	2.112089e+001	-2.112089e+001
1.207506569389724e-001	2.128590e+001	-2.128590e+001
1.210525956392470e-001	2.119149e+001	-2.119149e+001
1.214402053772361e-001	2.059931e+001	-2.059931e+001
1.220681965635733e-001	1.859454e+001	-1.859454e+001
1.230447590635733e-001	1.363326e+001	-1.363326e+001
1.240213215635733e-001	7.165110e+000	-7.165110e+000
1.249978840635733e-001	3.626586e+000	-3.626586e+000
1.259744465635733e-001	7.254234e+000	-7.254234e+000
1.260965168760733e-001	8.167244e+000	-8.167244e+000
1.263406575010733e-001	9.945414e+000	-9.945414e+000
1.268289387510733e-001	1.308847e+001	-1.308847e+001
1.278055012510733e-001	1.820976e+001	-1.820976e+001
1.282963085813807e-001	2.007748e+001	-2.007748e+001
1.285986112179335e-001	2.079606e+001	-2.079606e+001
1.288713194849381e-001	2.116748e+001	-2.116748e+001
1.291480076025367e-001	2.130540e+001	-2.130540e+001
1.294097313416104e-001	2.118803e+001	-2.118803e+001
1.298122397452251e-001	2.051522e+001	-2.051522e+001
1.304638728113156e-001	1.839217e+001	-1.839217e+001
1.313373614582647e-001	1.405214e+001	-1.405214e+001
1.320319402919543e-001	9.544409e+000	-9.544409e+000
1.326549271018879e-001	4.874506e+000	-4.874506e+000
1.332761493394330e-001	2.134341e+000	-2.134341e+000
1.338590696205943e-001	3.672498e+000	-3.672498e+000
1.338612608361791e-001	3.688221e+000	-3.688221e+000
1.338656432673487e-001	3.723612e+000	-3.723612e+000
1.338744081296880e-001	3.794592e+000	-3.794592e+000
1.338919378543664e-001	3.936396e+000	-3.936396e+000
1.339269973037234e-001	4.219329e+000	-4.219329e+000
1.339971162024373e-001	4.782080e+000	-4.782080e+000
1.341373539998652e-001	5.892115e+000	-5.892115e+000
1.344178295947209e-001	8.028780e+000	-8.028780e+000
1.349787807844324e-001	1.187529e+001	-1.187529e+001
1.359168780040942e-001	1.717820e+001	-1.717820e+001
1.365446779252571e-001	1.979702e+001	-1.979702e+001
1.368687747249725e-001	2.067351e+001	-2.067351e+001
1.371260962699728e-001	2.108278e+001	-2.108278e+001
1.374104325430410e-001	2.127743e+001	-2.127743e+001
1.377166987425726e-001	2.119232e+001	-2.119232e+001
1.381027031818679e-001	2.060857e+001	-2.060857e+001
1.387281427832639e-001	1.862073e+001	-1.862073e+001
1.397047052832639e-001	1.367317e+001	-1.367317e+001
1.406812677832639e-001	7.201427e+000	-7.201427e+000
1.416578302832639e-001	3.626574e+000	-3.626574e+000
1.426343927832639e-001	7.205497e+000	-7.205497e+000
1.427564630957639e-001	8.116193e+000	-8.116193e+000
1.430006037207639e-001	9.896748e+000	-9.896748e+000
1.434888849707639e-001	1.304604e+001	-1.304604e+001
1.444654474707639e-001	1.818002e+001	-1.818002e+001
1.449604322979018e-001	2.006955e+001	-2.006955e+001
1.452633821911736e-001	2.079268e+001	-2.079268e+001
1.455356306380967e-001	2.116578e+001	-2.116578e+001
1.458104901631103e-001	2.130493e+001	-2.130493e+001
1.460748427728598e-001	2.118857e+001	-2.118857e+001
1.464763780667468e-001	2.052115e+001	-2.052115e+001
1.471264691605470e-001	1.840959e+001	-1.840959e+001
1.479976672211460e-001	1.409206e+001	-1.409206e+001
1.486893502089155e-001	9.611707e+000	-9.611707e+000
1.493129472679544e-001	4.928892e+000	-4.928892e+000
1.499348812663467e-001	2.143995e+000	-2.143995e+000
1.505196370632813e-001	3.623491e+000	-3.623491e+000
1.505221153440772e-001	3.641129e+000	-3.641129e+000
1.505369850288528e-001	3.761472e+000	-3.761472e+000
1.505568112752202e-001	3.921875e+000	-3.921875e+000
1.505964637679549e-001	4.241813e+000	-4.241813e+000
1.506757687534245e-001	4.877625e+000	-4.877625e+000
1.508343787243636e-001	6.128705e+000	-6.128705e+000
1.511515986662419e-001	8.518058e+000	-8.518058e+000
1.517860385499985e-001	1.276137e+001	-1.276137e+001
1.527161430937531e-001	1.781559e+001	-1.781559e+001
1.532623595491175e-001	1.996544e+001	-1.996544e+001
1.535733284337792e-001	2.074571e+001	-2.074571e+001
1.538398944737513e-001	2.113887e+001	-2.113887e+001
1.540921800665876e-001	2.129083e+001	-2.129083e+001
1.543889752272391e-001	2.119053e+001	-2.119053e+001
1.547784923571158e-001	2.058825e+001	-2.058825e+001
1.554095142476233e-001	1.856328e+001	-1.856328e+001
1.563860767476233e-001	1.358576e+001	-1.358576e+001
1.573626392476233e-001	7.121913e+000	-7.121913e+000
1.583392017476233e-001	3.626569e+000	-3.626569e+000
1.593157642476233e-001	7.311984e+000	-7.311984e+000
1.594378345601233e-001	8.227718e+000	-8.227718e+000
1.596819751851233e-001	1.000306e+001	-1.000306e+001
1.601702564351233e-001	1.313876e+001	-1.313876e+001
1.611468189351233e-001	1.824492e+001	-1.824492e+001
1.616326611065273e-001	2.008685e+001	-2.008685e+001
1.619341956608513e-001	2.080004e+001	-2.080004e+001
1.622074498079777e-001	2.116945e+001	-2.116945e+001
1.624863091129276e-001	2.130587e+001	-2.130587e+001
1.627449113127840e-001	2.118736e+001	-2.118736e+001
1.631485750883136e-001	2.050813e+001	-2.050813e+001
