time	V(1)	V(5)	V(6)
0.000000000000000e+000	0.000000e+000	0.000000e+000	0.000000e+000
1.438058285208223e-005	9.216675e-001	-1.218771e-001	1.218771e-001
2.876116570416446e-005	1.843249e+000	-2.437328e-001	2.437328e-001
4.314174855624669e-005	2.764744e+000	-3.655669e-001	3.655669e-001
5.752233140832892e-005	3.686152e+000	-4.873796e-001	4.873796e-001
7.190291426041114e-005	4.607475e+000	-6.091708e-001	6.091708e-001
8.628349711249338e-005	5.528711e+000	-7.309406e-001	7.309406e-001
1.006640799645756e-004	6.449861e+000	-8.526888e-001	8.526888e-001
2.013271719291551e-004	1.289037e+001	-1.703064e+000	1.703064e+000
4.026533558583142e-004	2.570646e+001	-3.387757e+000	3.387757e+000
8.053057237166323e-004	5.082166e+001	-6.630641e+000	6.630641e+000
1.610610459433269e-003	9.699496e+001	-1.247406e+001	1.247406e+001
2.553077289426827e-003	1.395047e+002	-1.805999e+001	1.805999e+001
3.199496788837032e-003	1.588244e+002	-2.084513e+001	2.084513e+001
3.526661064957645e-003	1.650757e+002	-2.176175e+001	2.176175e+001
3.781833075318770e-003	1.682141e+002	-2.217718e+001	2.217718e+001
4.098490666959413e-003	1.699438e+002	-2.239555e+001	2.239555e+001
4.391322194955459e-003	1.693907e+002	-2.230520e+001	2.230520e+001
4.782308737538590e-003	1.654419e+002	-2.168319e+001	2.168319e+001
5.415664632618656e-003	1.515003e+002	-1.960272e+001	1.960272e+001
6.392227132618656e-003	1.135931e+002	-1.451319e+001	1.451319e+001
7.368789632618656e-003	6.046288e+001	-7.722679e+000	7.722679e+000
8.345352132618656e-003	-7.702641e-001	1.031002e-001	-1.031002e-001
9.321914632618656e-003	-6.190018e+001	7.915381e+000	-7.915381e+000
1.029847713261866e-002	-1.147346e+002	1.466721e+001	-1.466721e+001
1.127503963261866e-002	-1.521929e+002	1.985705e+001	-1.985705e+001
1.168088461086821e-002	-1.619589e+002	2.133024e+001	-2.133024e+001
1.197020778855377e-002	-1.666205e+002	2.197170e+001	-2.197170e+001
1.225090201713161e-002	-1.692510e+002	2.231306e+001	-2.231306e+001
1.256347188834535e-002	-1.699513e+002	2.240284e+001	-2.240284e+001
1.285334864637641e-002	-1.684939e+002	2.217452e+001	-2.217452e+001
1.332470813059964e-002	-1.618496e+002	2.113536e+001	-2.113536e+001
1.408457960929803e-002	-1.405588e+002	1.816910e+001	-1.816910e+001
1.493056468110768e-002	-1.034890e+002	1.340450e+001	-1.340450e+001
1.559770410074932e-002	-6.666890e+001	8.687173e+000	-8.687173e+000
1.620620528568388e-002	-2.936229e+001	3.831971e+000	-3.831971e+000
1.681119046369452e-002	9.257730e+000	-1.211804e+000	1.211804e+000
1.735641992697776e-002	4.370876e+001	-5.649032e+000	5.649032e+000
1.833298242697776e-002	9.990530e+001	-1.276744e+001	1.276744e+001
1.930954492697776e-002	1.427131e+002	-1.849805e+001	1.849805e+001
1.990094340695955e-002	1.596056e+002	-2.096432e+001	2.096432e+001
2.021912303439756e-002	1.654630e+002	-2.181297e+001	2.181297e+001
2.048060235606957e-002	1.684992e+002	-2.222331e+001	2.222331e+001
2.074848444860611e-002	1.699130e+002	-2.240063e+001	2.240063e+001
2.105178748428739e-002	1.694238e+002	-2.230724e+001	2.230724e+001
2.143889117091460e-002	1.655893e+002	-2.170621e+001	2.170621e+001
2.206607808736272e-002	1.519700e+002	-1.966771e+001	1.966771e+001
2.304264058736272e-002	1.143660e+002	-1.461197e+001	1.461197e+001
2.401920308736272e-002	6.143527e+001	-7.846961e+000	7.846961e+000
2.499576558736272e-002	2.713770e-001	-3.002727e-002	3.002727e-002
2.597232808736272e-002	-6.092889e+001	7.791249e+000	-7.791249e+000
2.694889058736272e-002	-1.139638e+002	1.456870e+001	-1.456870e+001
2.792545308736272e-002	-1.517259e+002	1.978934e+001	-1.978934e+001
2.834146252724433e-002	-1.618398e+002	2.131191e+001	-2.131191e+001
2.863232173205974e-002	-1.665624e+002	2.196392e+001	-2.196392e+001
2.891208578197871e-002	-1.692177e+002	2.230984e+001	-2.230984e+001
2.922040419542249e-002	-1.699651e+002	2.240714e+001	-2.240714e+001
2.950416617105045e-002	-1.686258e+002	2.219634e+001	-2.219634e+001
2.996565167621008e-002	-1.623463e+002	2.121099e+001	-2.121099e+001
3.071011198986206e-002	-1.420246e+002	1.836518e+001	-1.836518e+001
3.156135669323441e-002	-1.053035e+002	1.363641e+001	-1.363641e+001
3.223203126837151e-002	-6.857046e+001	8.933814e+000	-8.933814e+000
3.284265917295326e-002	-3.126754e+001	4.080235e+000	-4.080235e+000
3.344995253384299e-002	7.471541e+000	-9.780788e-001	9.780788e-001
3.400187475888226e-002	4.239365e+001	-5.477146e+000	5.477146e+000
3.497843725888226e-002	9.880221e+001	-1.262648e+001	1.262648e+001
3.595499975888226e-002	1.419698e+002	-1.839338e+001	1.839338e+001
3.655943236613488e-002	1.594244e+002	-2.093665e+001	2.093665e+001
3.687971906491987e-002	1.653732e+002	-2.180110e+001	2.180110e+001
3.713971612236758e-002	1.684343e+002	-2.221387e+001	2.221387e+001
3.741346745332059e-002	1.699095e+002	-2.239853e+001	2.239853e+001
3.771782781304191e-002	1.694271e+002	-2.230745e+001	2.230745e+001
3.810453928995003e-002	1.656041e+002	-2.170852e+001	2.170852e+001
3.873110281044730e-002	1.520171e+002	-1.967424e+001	1.967424e+001
3.970766531044730e-002	1.144438e+002	-1.462193e+001	1.462193e+001
4.068422781044730e-002	6.153338e+001	-7.859505e+000	7.859505e+000
4.166079031044730e-002	3.766065e-001	-4.348103e-002	4.348103e-002
4.263735281044730e-002	-6.083064e+001	7.778688e+000	-7.778688e+000
4.361391531044730e-002	-1.138857e+002	1.455872e+001	-1.455872e+001
4.459047781044730e-002	-1.516784e+002	1.978246e+001	-1.978246e+001
4.500751375156555e-002	-1.618278e+002	2.131004e+001	-2.131004e+001
4.529852830769546e-002	-1.665565e+002	2.196312e+001	-2.196312e+001
4.557819850903491e-002	-1.692142e+002	2.230951e+001	-2.230951e+001
4.588608735762387e-002	-1.699664e+002	2.240755e+001	-2.240755e+001
4.616923150366759e-002	-1.686388e+002	2.219849e+001	-2.219849e+001
4.662971895556102e-002	-1.623956e+002	2.121851e+001	-2.121851e+001
4.737261932048485e-002	-1.421710e+002	1.838563e+001	-1.838563e+001
4.822246364237746e-002	-1.055830e+002	1.367306e+001	-1.367306e+001
4.889342108375862e-002	-6.887978e+001	8.973962e+000	-8.973962e+000
4.950455966440099e-002	-3.156773e+001	4.119306e+000	-4.119306e+000
5.011250226655845e-002	7.207939e+000	-9.435988e-001	9.435988e-001
5.066549873862897e-002	4.220478e+001	-5.452452e+000	5.452452e+000
5.164206123862897e-002	9.864346e+001	-1.260620e+001	1.260620e+001
5.261862373862897e-002	1.418625e+002	-1.837829e+001	1.837829e+001
5.322492415957022e-002	1.593982e+002	-2.093266e+001	2.093266e+001
5.354551385046152e-002	1.653603e+002	-2.179939e+001	2.179939e+001
5.380529791636413e-002	1.684249e+002	-2.221251e+001	2.221251e+001
5.407989232533892e-002	1.699090e+002	-2.239824e+001	2.239824e+001
5.438440452806112e-002	1.694276e+002	-2.230749e+001	2.230749e+001
5.477105967706371e-002	1.656062e+002	-2.170886e+001	2.170886e+001
5.539753366347884e-002	1.520238e+002	-1.967518e+001	1.967518e+001
5.637409616347884e-002	1.144550e+002	-1.462336e+001	1.462336e+001
5.735065866347884e-002	6.154747e+001	-7.861311e+000	7.861311e+000
5.832722116347884e-002	3.917194e-001	-4.541775e-002	4.541775e-002
5.930378366347884e-002	-6.081652e+001	7.776879e+000	-7.776879e+000
6.028034616347884e-002	-1.138745e+002	1.455728e+001	-1.455728e+001
6.125690866347884e-002	-1.516716e+002	1.978147e+001	-1.978147e+001
6.167409202401875e-002	-1.618260e+002	2.130977e+001	-2.130977e+001
6.196512889419923e-002	-1.665556e+002	2.196300e+001	-2.196300e+001
6.224478561894577e-002	-1.692138e+002	2.230946e+001	-2.230946e+001
6.255261277289667e-002	-1.699666e+002	2.240760e+001	-2.240760e+001
6.283566818557616e-002	-1.686407e+002	2.219879e+001	-2.219879e+001
6.329601229002708e-002	-1.624027e+002	2.121958e+001	-2.121958e+001
6.403868857128951e-002	-1.421920e+002	1.838939e+001	-1.838939e+001
6.488648013272196e-002	-1.057161e+002	1.369109e+001	-1.369109e+001
6.555740741502597e-002	-6.903679e+001	8.994360e+000	-8.994360e+000
6.616890902045705e-002	-3.171365e+001	4.138269e+000	-4.138269e+000
6.677734744278649e-002	7.091306e+000	-9.283461e-001	9.283461e-001
6.733090497361247e-002	4.212652e+001	-5.442204e+000	5.442204e+000
6.830746747361247e-002	9.857765e+001	-1.259780e+001	1.259780e+001
6.928402997361247e-002	1.418180e+002	-1.837203e+001	1.837203e+001
6.989110399834618e-002	1.593874e+002	-2.093101e+001	2.093101e+001
7.021181925917806e-002	1.653549e+002	-2.179869e+001	2.179869e+001
7.047151506576134e-002	1.684210e+002	-2.221194e+001	2.221194e+001
7.074645880718873e-002	1.699088e+002	-2.239811e+001	2.239811e+001
7.105103392417006e-002	1.694278e+002	-2.230750e+001	2.230750e+001
7.143766573422715e-002	1.656071e+002	-2.170900e+001	2.170900e+001
7.206410262273487e-002	1.520267e+002	-1.967558e+001	1.967558e+001
7.304066512273487e-002	1.144596e+002	-1.462396e+001	1.462396e+001
7.401722762273487e-002	6.155330e+001	-7.862062e+000	7.862062e+000
7.499379012273487e-002	3.979813e-001	-4.622355e-002	4.622355e-002
7.597035262273487e-002	-6.081068e+001	7.776126e+000	-7.776126e+000
7.694691512273487e-002	-1.138698e+002	1.455668e+001	-1.455668e+001
7.792347762273487e-002	-1.516688e+002	1.978105e+001	-1.978105e+001
7.834072206489409e-002	-1.618253e+002	2.130965e+001	-2.130965e+001
7.863176818091501e-002	-1.665553e+002	2.196295e+001	-2.196295e+001
7.891141932188084e-002	-1.692136e+002	2.230943e+001	-2.230943e+001
7.921922091308950e-002	-1.699666e+002	2.240763e+001	-2.240763e+001
7.950223955972614e-002	-1.686414e+002	2.219891e+001	-2.219891e+001
7.996252426874043e-002	-1.624056e+002	2.122002e+001	-2.122002e+001
8.070510769942484e-002	-1.422006e+002	1.839153e+001	-1.839153e+001
8.155076788353174e-002	-1.058354e+002	1.370740e+001	-1.370740e+001
8.222163308798171e-002	-6.917972e+001	9.012933e+000	-9.012933e+000
8.283348742348716e-002	-3.184512e+001	4.155349e+000	-4.155349e+000
8.344240941830999e-002	6.988552e+000	-9.149097e-001	9.149097e-001
8.399647872860039e-002	4.205866e+001	-5.433313e+000	5.433313e+000
8.497304122860039e-002	9.852058e+001	-1.259051e+001	1.259051e+001
8.594960372860039e-002	1.417793e+002	-1.836660e+001	1.836660e+001
8.655734847462768e-002	1.593780e+002	-2.092957e+001	2.092957e+001
8.687817264272438e-002	1.653502e+002	-2.179807e+001	2.179807e+001
8.713779190709788e-002	1.684176e+002	-2.221145e+001	2.221145e+001
8.741303859404223e-002	1.699086e+002	-2.239801e+001	2.239801e+001
8.771766826991716e-002	1.694280e+002	-2.230752e+001	2.230752e+001
8.810427984048655e-002	1.656078e+002	-2.170913e+001	2.170913e+001
8.873068455762405e-002	1.520291e+002	-1.967592e+001	1.967592e+001
8.970724705762405e-002	1.144636e+002	-1.462447e+001	1.462447e+001
9.068380955762405e-002	6.155836e+001	-7.862715e+000	7.862715e+000
9.166037205762405e-002	4.034116e-001	-4.692289e-002	4.692289e-002
9.263693455762405e-002	-6.080560e+001	7.775473e+000	-7.775473e+000
9.361349705762405e-002	-1.138658e+002	1.455616e+001	-1.455616e+001
9.459005955762405e-002	-1.516663e+002	1.978069e+001	-1.978069e+001
9.500735696952417e-002	-1.618247e+002	2.130955e+001	-2.130955e+001
9.529841110362436e-002	-1.665550e+002	2.196290e+001	-2.196290e+001
9.557805740240373e-002	-1.692134e+002	2.230941e+001	-2.230941e+001
9.588583682558566e-002	-1.699667e+002	2.240764e+001	-2.240764e+001
9.616882358868914e-002	-1.686421e+002	2.219902e+001	-2.219902e+001
9.662905678974036e-002	-1.624082e+002	2.122040e+001	-2.122040e+001
9.737155969888303e-002	-1.422082e+002	1.839351e+001	-1.839351e+001
9.821506665951590e-002	-1.059541e+002	1.372363e+001	-1.372363e+001
9.888586555229763e-002	-6.932220e+001	9.031446e+000	-9.031446e+000
9.949807581359180e-002	-3.197595e+001	4.172344e+000	-4.172344e+000
1.001074829042507e-001	6.886532e+000	-9.015699e-001	9.015699e-001
1.006620599549628e-001	4.199126e+001	-5.424483e+000	5.424483e+000
1.016386224549628e-001	9.846388e+001	-1.258327e+001	1.258327e+001
1.026151849549628e-001	1.417409e+002	-1.836120e+001	1.836120e+001
1.032235957769829e-001	1.593686e+002	-2.092815e+001	2.092815e+001
1.035445281321664e-001	1.653456e+002	-2.179747e+001	2.179747e+001
1.038040713654696e-001	1.684142e+002	-2.221097e+001	2.221097e+001
1.040796189653755e-001	1.699085e+002	-2.239791e+001	2.239791e+001
1.043843028330437e-001	1.694281e+002	-2.230754e+001	2.230754e+001
1.047708943002292e-001	1.656086e+002	-2.170925e+001	2.170925e+001
1.053972670622116e-001	1.520315e+002	-1.967626e+001	1.967626e+001
1.063738295622116e-001	1.144676e+002	-1.462499e+001	1.462499e+001
1.073503920622116e-001	6.156339e+001	-7.863363e+000	7.863363e+000
1.083269545622116e-001	4.088054e-001	-4.761768e-002	4.761768e-002
1.093035170622116e-001	-6.080057e+001	7.774824e+000	-7.774824e+000
1.102800795622116e-001	-1.138618e+002	1.455564e+001	-1.455564e+001
1.112566420622116e-001	-1.516639e+002	1.978033e+001	-1.978033e+001
1.116739920875389e-001	-1.618241e+002	2.130945e+001	-2.130945e+001
1.119650541858956e-001	-1.665547e+002	2.196286e+001	-2.196286e+001
1.122446956751033e-001	-1.692132e+002	2.230939e+001	-2.230939e+001
1.125524530792695e-001	-1.699668e+002	2.240766e+001	-2.240766e+001
1.128354081731604e-001	-1.686428e+002	2.219912e+001	-2.219912e+001
1.132955902122940e-001	-1.624107e+002	2.122078e+001	-2.122078e+001
1.140380131398097e-001	-1.422157e+002	1.839549e+001	-1.839549e+001
1.148793505719301e-001	-1.060735e+002	1.373995e+001	-1.373995e+001
1.155500816417421e-001	-6.946557e+001	9.050076e+000	-9.050076e+000
1.161626524254172e-001	-3.210750e+001	4.189431e+000	-4.189431e+000
1.167725475013346e-001	6.783941e+000	-8.881561e-001	8.881561e-001
1.173276326975023e-001	4.192332e+001	-5.415584e+000	5.415584e+000
1.183041951975023e-001	9.840672e+001	-1.257597e+001	1.257597e+001
1.192807576975023e-001	1.417022e+002	-1.835576e+001	1.835576e+001
1.198898397408582e-001	1.593592e+002	-2.092672e+001	2.092672e+001
1.202108811532941e-001	1.653409e+002	-2.179685e+001	2.179685e+001
1.204703477490255e-001	1.684108e+002	-2.221048e+001	2.221048e+001
1.207461986526661e-001	1.699083e+002	-2.239780e+001	2.239780e+001
1.210509371416345e-001	1.694283e+002	-2.230755e+001	2.230755e+001
1.214375083460245e-001	1.656094e+002	-2.170937e+001	2.170937e+001
1.220638488993325e-001	1.520339e+002	-1.967660e+001	1.967660e+001
1.230404113993325e-001	1.144716e+002	-1.462551e+001	1.462551e+001
1.240169738993325e-001	6.156846e+001	-7.864016e+000	7.864016e+000
1.249935363993325e-001	4.142420e-001	-4.831794e-002	4.831794e-002
1.259700988993325e-001	-6.079549e+001	7.774169e+000	-7.774169e+000
1.269466613993325e-001	-1.138577e+002	1.455512e+001	-1.455512e+001
1.279232238993325e-001	-1.516614e+002	1.977997e+001	-1.977997e+001
1.283406269551794e-001	-1.618234e+002	2.130935e+001	-2.130935e+001
1.286316970810430e-001	-1.665544e+002	2.196281e+001	-2.196281e+001
1.289113337225940e-001	-1.692130e+002	2.230936e+001	-2.230936e+001
1.292190689330806e-001	-1.699668e+002	2.240767e+001	-2.240767e+001
1.295019921065485e-001	-1.686434e+002	2.219923e+001	-2.219923e+001
1.299621225777401e-001	-1.624132e+002	2.122117e+001	-2.122117e+001
1.307044648878281e-001	-1.422232e+002	1.839749e+001	-1.839749e+001
1.315436169210498e-001	-1.061937e+002	1.375639e+001	-1.375639e+001
1.322142789080891e-001	-6.960999e+001	9.068840e+000	-9.068840e+000
1.328272150262260e-001	-3.223991e+001	4.206629e+000	-4.206629e+000
1.334376011285851e-001	6.680645e+000	-8.746507e-001	8.746507e-001
1.339931953079467e-001	4.185474e+001	-5.406602e+000	5.406602e+000
1.349697578079467e-001	9.834901e+001	-1.256860e+001	1.256860e+001
1.359463203079467e-001	1.416631e+002	-1.835027e+001	1.835027e+001
1.365560797276729e-001	1.593496e+002	-2.092527e+001	2.092527e+001
1.368772312325161e-001	1.653362e+002	-2.179624e+001	2.179624e+001
1.371366204683648e-001	1.684073e+002	-2.220998e+001	2.220998e+001
1.374127775245823e-001	1.699081e+002	-2.239770e+001	2.239770e+001
1.377175711468300e-001	1.694285e+002	-2.230757e+001	2.230757e+001
1.381041218984160e-001	1.656101e+002	-2.170950e+001	2.170950e+001
1.387304299408923e-001	1.520364e+002	-1.967694e+001	1.967694e+001
1.397069924408923e-001	1.144757e+002	-1.462603e+001	1.462603e+001
1.406835549408923e-001	6.157357e+001	-7.864676e+000	7.864676e+000
1.416601174408923e-001	4.197296e-001	-4.902468e-002	4.902468e-002
1.426366799408923e-001	-6.079036e+001	7.773509e+000	-7.773509e+000
1.436132424408923e-001	-1.138537e+002	1.455459e+001	-1.455459e+001
1.445898049408923e-001	-1.516590e+002	1.977961e+001	-1.977961e+001
1.450072615244238e-001	-1.618228e+002	2.130925e+001	-2.130925e+001
1.452983397531688e-001	-1.665541e+002	2.196276e+001	-2.196276e+001
1.455779715016596e-001	-1.692128e+002	2.230934e+001	-2.230934e+001
1.458856843102887e-001	-1.699669e+002	2.240769e+001	-2.240769e+001
1.461685752639214e-001	-1.686441e+002	2.219934e+001	-2.219934e+001
1.466286536832708e-001	-1.624158e+002	2.122155e+001	-2.122155e+001
1.473709146183576e-001	-1.422308e+002	1.839951e+001	-1.839951e+001
1.482078653054448e-001	-1.063147e+002	1.377294e+001	-1.377294e+001
1.488784569559477e-001	-6.975546e+001	9.087742e+000	-9.087742e+000
1.494917633214421e-001	-3.237320e+001	4.223940e+000	-4.223940e+000
1.501026435242127e-001	6.576627e+000	-8.610517e-001	8.610517e-001
1.506587475617525e-001	4.178551e+001	-5.397536e+000	5.397536e+000
1.516353100617525e-001	9.829075e+001	-1.256116e+001	1.256116e+001
1.526118725617525e-001	1.416236e+002	-1.834472e+001	1.834472e+001
1.532223156487977e-001	1.593400e+002	-2.092381e+001	2.092381e+001
1.535435783043329e-001	1.653315e+002	-2.179561e+001	2.179561e+001
1.538028894418827e-001	1.684039e+002	-2.220948e+001	2.220948e+001
1.540793555629645e-001	1.699079e+002	-2.239759e+001	2.239759e+001
1.543842048418726e-001	1.694286e+002	-2.230758e+001	2.230758e+001
1.547707349464141e-001	1.656109e+002	-2.170963e+001	2.170963e+001
1.553970101691705e-001	1.520389e+002	-1.967729e+001	1.967729e+001
1.563735726691705e-001	1.144798e+002	-1.462656e+001	1.462656e+001
1.573501351691705e-001	6.157874e+001	-7.865341e+000	7.865341e+000
1.583266976691705e-001	4.252692e-001	-4.973845e-002	4.973845e-002
1.593032601691705e-001	-6.078519e+001	7.772842e+000	-7.772842e+000
1.602798226691705e-001	-1.138496e+002	1.455406e+001	-1.455406e+001
1.612563851691705e-001	-1.516564e+002	1.977924e+001	-1.977924e+001
1.616738957886246e-001	-1.618222e+002	2.130914e+001	-2.130914e+001
1.619649821973047e-001	-1.665538e+002	2.196272e+001	-2.196272e+001
1.622446090063210e-001	-1.692127e+002	2.230932e+001	-2.230932e+001
1.625522992002775e-001	-1.699670e+002	2.240771e+001	-2.240771e+001
1.628351576279933e-001	-1.686448e+002	2.219944e+001	-2.219944e+001
1.632951835008198e-001	-1.624184e+002	2.122194e+001	-2.122194e+001
1.640373622864484e-001	-1.422385e+002	1.840155e+001	-1.840155e+001
1.648720955506446e-001	-1.064365e+002	1.378960e+001	-1.378960e+001
1.655426155921429e-001	-6.990201e+001	9.106783e+000	-9.106783e+000
1.661562972094612e-001	-3.250737e+001	4.241365e+000	-4.241365e+000
1.667676746078695e-001	6.471882e+000	-8.473582e-001	8.473582e-001
1.673242893767563e-001	4.171563e+001	-5.388385e+000	5.388385e+000
1.683008518767563e-001	9.823193e+001	-1.255365e+001	1.255365e+001
1.692774143767563e-001	1.415837e+002	-1.833912e+001	1.833912e+001
1.698885474705750e-001	1.593303e+002	-2.092233e+001	2.092233e+001
1.702099223440398e-001	1.653266e+002	-2.179498e+001	2.179498e+001
1.704691546387351e-001	1.684003e+002	-2.220898e+001	2.220898e+001
1.707459327609660e-001	1.699077e+002	-2.239748e+001	2.239748e+001
1.710508382242134e-001	1.694288e+002	-2.230760e+001	2.230760e+001
1.714373474858732e-001	1.656117e+002	-2.170975e+001	2.170975e+001
1.720635895774795e-001	1.520414e+002	-1.967765e+001	1.967765e+001
1.730401520774795e-001	1.144839e+002	-1.462710e+001	1.462710e+001
1.740167145774795e-001	6.158395e+001	-7.866013e+000	7.866013e+000
1.749932770774795e-001	4.308615e-001	-5.045833e-002	5.045833e-002
1.759698395774795e-001	-6.077997e+001	7.772170e+000	-7.772170e+000
1.769464020774795e-001	-1.138454e+002	1.455353e+001	-1.455353e+001
1.779229645774795e-001	-1.516539e+002	1.977887e+001	-1.977887e+001
1.783405297452697e-001	-1.618215e+002	2.130904e+001	-2.130904e+001
1.786316244115743e-001	-1.665535e+002	2.196267e+001	-2.196267e+001
1.789112462343213e-001	-1.692125e+002	2.230930e+001	-2.230930e+001
1.792189135990391e-001	-1.699670e+002	2.240772e+001	-2.240772e+001
